
SetupTitle, Output Curve
PrimitiveTest, I/V Sweep
TestParameter, Context.MainFrame, B1500A
TestParameter, Channel.UnitType, SMU, SMU, SMU
TestParameter, Channel.Unit, GNDU:GND, SMU3:MP, SMU4:MP
TestParameter, Channel.IName, Is, Id, Ig
TestParameter, Channel.VName, Vs, Vd, Vg
TestParameter, Channel.Mode, COMMON, V, V
TestParameter, Channel.Func, CONST, VAR1, VAR2
TestParameter, Channel.Index, 
TestParameter, Channel.Time, 
TestParameter, Measurement.Port.Unit, GNDU:GND, SMU3:MP, SMU4:MP
TestParameter, Measurement.Port.SeriesResistor, NONE, NONE, NONE
TestParameter, Measurement.Port.Filter, ON, ON, ON
TestParameter, Measurement.Port.OutputVoltageComparison, 0, 0, 0
TestParameter, Measurement.Primary.Locus, Single
TestParameter, Measurement.Primary.Scale, LINEAR
TestParameter, Measurement.Primary.Start, 0
TestParameter, Measurement.Primary.Stop, 10
TestParameter, Measurement.Primary.Step, 0.05
TestParameter, Measurement.Primary.Compliance, 1E-05
TestParameter, Measurement.Primary.PowerCompliance, 0
TestParameter, Measurement.Aborting.Condition, CONTINUE AT ANY
TestParameter, Measurement.PostOutput.Value, START
TestParameter, Measurement.PostOutput.Retention, OFF
TestParameter, Measurement.Secondary.Start, -50
TestParameter, Measurement.Secondary.Count, 11
TestParameter, Measurement.Secondary.Step, 10
TestParameter, Measurement.Secondary.Compliance, 1E-09
TestParameter, Measurement.Secondary.PowerCompliance, 0
TestParameter, Measurement.Bias.Source, 0, 0, -50
TestParameter, Measurement.Bias.Compliance, 2, 1E-05, 1E-09
TestParameter, Measurement.Monitor.Unit, GNDU:GND, SMU3:MP, SMU4:MP
TestParameter, Measurement.Monitor.Adc, HR ADC, HR ADC, HR ADC
TestParameter, Measurement.Monitor.Measurement, Compliance Side, Compliance Side, Compliance Side
TestParameter, Measurement.Monitor.RangingMode, LIMITED, LIMITED, LIMITED
TestParameter, Measurement.Monitor.RangeBoundary, 1nA, 1nA, 1nA
TestParameter, Measurement.Monitor.RangeRating, BY FULL RANGE, BY FULL RANGE, BY FULL RANGE
TestParameter, Measurement.Monitor.RangeRatingCoeff, 50, 50, 50
TestParameter, Measurement.Timing.Hold, 2
TestParameter, Measurement.Timing.Delay, 0
TestParameter, Measurement.Adc.HighSpeed.Mode, AUTO
TestParameter, Measurement.Adc.HighSpeed.Coeff, 1
TestParameter, Measurement.Adc.HighResolution.AutoZero, OFF
TestParameter, Measurement.Adc.HighResolution.Mode, AUTO
TestParameter, Measurement.Adc.HighResolution.Coeff, 6
TestParameter, Measurement.WaitTime.Source.Coeff, 1
TestParameter, Measurement.WaitTime.Source.Offset, 0
TestParameter, Measurement.WaitTime.Monitor.Coeff, 1
TestParameter, Measurement.WaitTime.Monitor.Offset, 0
TestParameter, Function.User.Name, Vds
TestParameter, Function.User.Unit, V
TestParameter, Function.User.Definition, Vd-Vs
TestParameter, Output.Graph.Enabled, true
TestParameter, Output.Graph.AutoScaling, false
TestParameter, Output.Graph.XAxis.Data, Vds
TestParameter, Output.Graph.XAxis.Scale, Linear
TestParameter, Output.Graph.XAxis.Left, 0
TestParameter, Output.Graph.XAxis.Right, 10
TestParameter, Output.Graph.XAxis.RunTimeAutoScale, false
TestParameter, Output.Graph.YAxis.Data, Id
TestParameter, Output.Graph.YAxis.Scale, Linear
TestParameter, Output.Graph.YAxis.Bottom, -1E-05
TestParameter, Output.Graph.YAxis.Top, 1E-05
TestParameter, Output.Graph.YAxis.Group, 
TestParameter, Output.Graph.YAxis.RunTimeAutoScale, true
TestParameter, Output.List.Data, Vd, Id, Vg, Ig
TestParameter, AutoAnalysis.Interpolation, false
TestParameter, AutoAnalysis.Var2StepCount, 1
TestParameter, AutoAnalysis.Var2StepScript, 
TestParameter, AutoAnalysis.Line1.Enabled, false
TestParameter, AutoAnalysis.Line1.Type, 1
TestParameter, AutoAnalysis.Line1.Fix, True
TestParameter, AutoAnalysis.Line1.YAxis, 0
TestParameter, AutoAnalysis.Line1.Point1.Type, 0
TestParameter, AutoAnalysis.Line1.Point1.XY.X, 
TestParameter, AutoAnalysis.Line1.Point1.XY.Y, 
TestParameter, AutoAnalysis.Line1.Point1.Data.Var, 
TestParameter, AutoAnalysis.Line1.Point1.Data.Condition, 
TestParameter, AutoAnalysis.Line1.Point1.Data.Start, false
TestParameter, AutoAnalysis.Line1.Point1.Data.StartVar, 
TestParameter, AutoAnalysis.Line1.Point1.Data.StartCondition, 
TestParameter, AutoAnalysis.Line1.Point2.Type, 0
TestParameter, AutoAnalysis.Line1.Point2.XY.X, 
TestParameter, AutoAnalysis.Line1.Point2.XY.Y, 
TestParameter, AutoAnalysis.Line1.Point2.Data.Var, 
TestParameter, AutoAnalysis.Line1.Point2.Data.Condition, 
TestParameter, AutoAnalysis.Line1.Point2.Data.Start, false
TestParameter, AutoAnalysis.Line1.Point2.Data.StartVar, 
TestParameter, AutoAnalysis.Line1.Point2.Data.StartCondition, 
TestParameter, AutoAnalysis.Line1.GradientExpr, 0
TestParameter, AutoAnalysis.Line2.Enabled, false
TestParameter, AutoAnalysis.Line2.Type, 1
TestParameter, AutoAnalysis.Line2.Fix, True
TestParameter, AutoAnalysis.Line2.YAxis, 0
TestParameter, AutoAnalysis.Line2.Point1.Type, 0
TestParameter, AutoAnalysis.Line2.Point1.XY.X, 
TestParameter, AutoAnalysis.Line2.Point1.XY.Y, 
TestParameter, AutoAnalysis.Line2.Point1.Data.Var, 
TestParameter, AutoAnalysis.Line2.Point1.Data.Condition, 
TestParameter, AutoAnalysis.Line2.Point1.Data.Start, false
TestParameter, AutoAnalysis.Line2.Point1.Data.StartVar, 
TestParameter, AutoAnalysis.Line2.Point1.Data.StartCondition, 
TestParameter, AutoAnalysis.Line2.Point2.Type, 0
TestParameter, AutoAnalysis.Line2.Point2.XY.X, 
TestParameter, AutoAnalysis.Line2.Point2.XY.Y, 
TestParameter, AutoAnalysis.Line2.Point2.Data.Var, 
TestParameter, AutoAnalysis.Line2.Point2.Data.Condition, 
TestParameter, AutoAnalysis.Line2.Point2.Data.Start, false
TestParameter, AutoAnalysis.Line2.Point2.Data.StartVar, 
TestParameter, AutoAnalysis.Line2.Point2.Data.StartCondition, 
TestParameter, AutoAnalysis.Line2.GradientExpr, 0
TestParameter, AutoAnalysis.Marker.Enabled, false
TestParameter, AutoAnalysis.Marker.Data.Var, 
TestParameter, AutoAnalysis.Marker.Data.Condition, 
TestParameter, AutoAnalysis.Marker.Data.Start, false
TestParameter, AutoAnalysis.Marker.Data.StartVar, 
TestParameter, AutoAnalysis.Marker.Data.StartCondition, 
MetaData, TestRecord.EntryPoint, true
MetaData, TestRecord.RecordTime, 10/07/2025 22:59:16
MetaData, TestRecord.TestTarget, CHIP012_P15
MetaData, TestRecord.IterationIndex, 1
MetaData, TestRecord.Preservation, true
MetaData, TestRecord.Flag, !
MetaData, TestRecord.Remarks, 
MetaData, TestRecord.LinkKey, 8ce2edf7-95be-4039-a306-a225e591c20b
MetaData, TestRecord.Parameters, 
Dimension1, 201, 201, 201, 201, 201, 201
Dimension2, 11, 11, 11, 11, 11, 11
DataName, Vd, Vg, Vs, Id, Ig, Vds
DataValue, 0, -50, 0, -9.0000000000000008E-14, -1.552E-12, 0
DataValue, 0.05, -50, 0, 5.5000000000000008E-13, -1.8100000000000002E-12, 0.05
DataValue, 0.1, -50, 0, 6.8E-13, -1.3780000000000002E-12, 0.1
DataValue, 0.15, -50, 0, -7E-13, -2.1500000000000003E-12, 0.15
DataValue, 0.2, -50, 0, 2.5E-13, -1.8140000000000002E-12, 0.2
DataValue, 0.25, -50, 0, 4.9E-13, -2.236E-12, 0.25
DataValue, 0.3, -50, 0, -8.0000000000000013E-14, -1.124E-12, 0.3
DataValue, 0.35000000000000003, -50, 0, -2E-13, -1.6760000000000001E-12, 0.35000000000000003
DataValue, 0.4, -50, 0, 2.5E-13, -9.26E-13, 0.4
DataValue, 0.45, -50, 0, 7.5E-13, -1.7960000000000002E-12, 0.45
DataValue, 0.5, -50, 0, 1.6000000000000003E-13, -2.1660000000000003E-12, 0.5
DataValue, 0.55, -50, 0, 4.4000000000000004E-13, -1.7220000000000001E-12, 0.55
DataValue, 0.6, -50, 0, -1.7E-13, -1.8080000000000002E-12, 0.6
DataValue, 0.65, -50, 0, 4.2000000000000003E-13, -1.3000000000000001E-12, 0.65
DataValue, 0.70000000000000007, -50, 0, 2.5E-13, -1.4820000000000002E-12, 0.70000000000000007
DataValue, 0.75, -50, 0, 1.04E-12, -1.546E-12, 0.75
DataValue, 0.8, -50, 0, -3.9000000000000005E-13, -1.41E-12, 0.8
DataValue, 0.85, -50, 0, -2.6E-13, -1.6580000000000002E-12, 0.85
DataValue, 0.9, -50, 0, 8.0000000000000013E-14, -3.012E-12, 0.9
DataValue, 0.95000000000000007, -50, 0, 6.400000000000001E-13, -2.444E-12, 0.95000000000000007
DataValue, 1, -50, 0, 5E-14, -2.4540000000000002E-12, 1
DataValue, 1.05, -50, 0, 4.5000000000000005E-13, -1.372E-12, 1.05
DataValue, 1.1, -50, 0, -6.0000000000000009E-14, -1.59E-12, 1.1
DataValue, 1.1500000000000001, -50, 0, 8.1000000000000008E-13, -9.1400000000000014E-13, 1.1500000000000001
DataValue, 1.2, -50, 0, 5.5000000000000008E-13, -1.178E-12, 1.2
DataValue, 1.25, -50, 0, 1.22E-12, -1.5320000000000001E-12, 1.25
DataValue, 1.3, -50, 0, 7.4000000000000008E-13, -1.3440000000000001E-12, 1.3
DataValue, 1.35, -50, 0, -5.7E-13, -1.4900000000000001E-12, 1.35
DataValue, 1.4000000000000001, -50, 0, 3.0000000000000003E-13, -1.548E-12, 1.4000000000000001
DataValue, 1.45, -50, 0, 7E-14, -1.5780000000000001E-12, 1.45
DataValue, 1.5, -50, 0, 1.9000000000000002E-13, -1.164E-12, 1.5
DataValue, 1.55, -50, 0, -1.2000000000000002E-13, -1.176E-12, 1.55
DataValue, 1.6, -50, 0, -4.2000000000000003E-13, -1.2460000000000001E-12, 1.6
DataValue, 1.6500000000000001, -50, 0, -4.1E-13, -2.04E-12, 1.6500000000000001
DataValue, 1.7, -50, 0, 5.9E-13, -1.7940000000000002E-12, 1.7
DataValue, 1.75, -50, 0, 9.9E-13, -1.96E-12, 1.75
DataValue, 1.8, -50, 0, 1.04E-12, -4.9E-13, 1.8
DataValue, 1.85, -50, 0, 4.2000000000000003E-13, -1.222E-12, 1.85
DataValue, 1.9000000000000001, -50, 0, -1.0000000000000002E-14, -1.126E-12, 1.9000000000000001
DataValue, 1.95, -50, 0, 7.8000000000000011E-13, -1.6580000000000002E-12, 1.95
DataValue, 2, -50, 0, -9.0000000000000008E-14, -9.86E-13, 2
DataValue, 2.05, -50, 0, 1E-13, -1.214E-12, 2.05
DataValue, 2.1, -50, 0, -2.3000000000000003E-13, -1.09E-12, 2.1
DataValue, 2.15, -50, 0, 1.0000000000000002E-14, -1.358E-12, 2.15
DataValue, 2.2, -50, 0, 6.400000000000001E-13, -2.184E-12, 2.2
DataValue, 2.25, -50, 0, 4.1E-13, -1.2360000000000002E-12, 2.25
DataValue, 2.3000000000000003, -50, 0, 6.0000000000000007E-13, -1.7580000000000002E-12, 2.3000000000000003
DataValue, 2.35, -50, 0, 5.2E-13, -1.2060000000000001E-12, 2.35
DataValue, 2.4, -50, 0, 5.6E-13, -1.1920000000000002E-12, 2.4
DataValue, 2.45, -50, 0, 8.7E-13, -1.7960000000000002E-12, 2.45
DataValue, 2.5, -50, 0, 7.8000000000000011E-13, -1.4300000000000002E-12, 2.5
DataValue, 2.5500000000000003, -50, 0, 9.2000000000000012E-13, -1.1900000000000002E-12, 2.5500000000000003
DataValue, 2.6, -50, 0, -1.0000000000000002E-14, -1.6280000000000001E-12, 2.6
DataValue, 2.65, -50, 0, -1.0000000000000002E-14, -1.118E-12, 2.65
DataValue, 2.7, -50, 0, -3.0000000000000005E-14, -1.2020000000000001E-12, 2.7
DataValue, 2.75, -50, 0, -2.0000000000000003E-14, -8.18E-13, 2.75
DataValue, 2.8000000000000003, -50, 0, -3.9000000000000005E-13, -1.21E-12, 2.8000000000000003
DataValue, 2.85, -50, 0, 4.3000000000000004E-13, -9.76E-13, 2.85
DataValue, 2.9, -50, 0, 4.7E-13, -1.7260000000000001E-12, 2.9
DataValue, 2.95, -50, 0, 1.22E-12, -1.1600000000000001E-12, 2.95
DataValue, 3, -50, 0, 7.5E-13, -1.184E-12, 3
DataValue, 3.0500000000000003, -50, 0, -1.5000000000000002E-13, -1.416E-12, 3.0500000000000003
DataValue, 3.1, -50, 0, 1.5000000000000002E-13, -1.2400000000000002E-12, 3.1
DataValue, 3.15, -50, 0, 1.8000000000000002E-13, -1.128E-12, 3.15
DataValue, 3.2, -50, 0, 2.7E-13, -1.5240000000000002E-12, 3.2
DataValue, 3.25, -50, 0, 1.5000000000000002E-13, -1.898E-12, 3.25
DataValue, 3.3000000000000003, -50, 0, -2E-13, -2.038E-12, 3.3000000000000003
DataValue, 3.35, -50, 0, 4.0000000000000006E-14, -1.372E-12, 3.35
DataValue, 3.4, -50, 0, 2.0000000000000003E-14, -1.6180000000000002E-12, 3.4
DataValue, 3.45, -50, 0, -6.0000000000000009E-14, -1.554E-12, 3.45
DataValue, 3.5, -50, 0, 4.3000000000000004E-13, -1.544E-12, 3.5
DataValue, 3.5500000000000003, -50, 0, 1.5000000000000002E-13, -1.366E-12, 3.5500000000000003
DataValue, 3.6, -50, 0, 5E-13, -4.66E-13, 3.6
DataValue, 3.65, -50, 0, 7.5E-13, -1.034E-12, 3.65
DataValue, 3.7, -50, 0, 7E-14, -6.06E-13, 3.7
DataValue, 3.75, -50, 0, 9.0000000000000008E-14, -1.3880000000000001E-12, 3.75
DataValue, 3.8000000000000003, -50, 0, -1.2000000000000002E-13, -1.7620000000000002E-12, 3.8000000000000003
DataValue, 3.85, -50, 0, 3.5E-13, -1.884E-12, 3.85
DataValue, 3.9, -50, 0, -1E-13, -1.1980000000000002E-12, 3.9
DataValue, 3.95, -50, 0, -3.7000000000000004E-13, -1.358E-12, 3.95
DataValue, 4, -50, 0, -4.8000000000000008E-13, -1.412E-12, 4
DataValue, 4.05, -50, 0, -1.5000000000000002E-13, -1.6780000000000001E-12, 4.05
DataValue, 4.1, -50, 0, 4.7E-13, -1.264E-12, 4.1
DataValue, 4.15, -50, 0, -1.5000000000000002E-13, -1.1960000000000002E-12, 4.15
DataValue, 4.2, -50, 0, 3.9000000000000005E-13, -9.54E-13, 4.2
DataValue, 4.25, -50, 0, 4.3000000000000004E-13, -1.128E-12, 4.25
DataValue, 4.3, -50, 0, -2.2000000000000002E-13, -1.3320000000000002E-12, 4.3
DataValue, 4.3500000000000005, -50, 0, 5.7E-13, -1.074E-12, 4.3500000000000005
DataValue, 4.4, -50, 0, 7.3E-13, -8.540000000000001E-13, 4.4
DataValue, 4.45, -50, 0, 2.1000000000000001E-13, -1.4800000000000002E-12, 4.45
DataValue, 4.5, -50, 0, -2.3000000000000003E-13, -1.408E-12, 4.5
DataValue, 4.55, -50, 0, -6.0000000000000009E-14, -1.17E-12, 4.55
DataValue, 4.6000000000000005, -50, 0, 7E-13, -1.1960000000000002E-12, 4.6000000000000005
DataValue, 4.65, -50, 0, -2.1000000000000001E-13, -7.6400000000000008E-13, 4.65
DataValue, 4.7, -50, 0, -3.9000000000000005E-13, -7.4600000000000005E-13, 4.7
DataValue, 4.75, -50, 0, 1.4E-13, -1.6780000000000001E-12, 4.75
DataValue, 4.8, -50, 0, 4.1E-13, -1.6760000000000001E-12, 4.8
DataValue, 4.8500000000000005, -50, 0, 6.0000000000000009E-14, -1.3500000000000001E-12, 4.8500000000000005
DataValue, 4.9, -50, 0, 3.0000000000000005E-14, -5.7E-13, 4.9
DataValue, 4.95, -50, 0, 2.1000000000000001E-13, -1.512E-12, 4.95
DataValue, 5, -50, 0, 4.4000000000000004E-13, -1.5160000000000002E-12, 5
DataValue, 5.05, -50, 0, 7.100000000000001E-13, -1.222E-12, 5.05
DataValue, 5.1000000000000005, -50, 0, 1.7E-13, -2.0780000000000002E-12, 5.1000000000000005
DataValue, 5.15, -50, 0, 1.8000000000000002E-13, -1.2520000000000001E-12, 5.15
DataValue, 5.2, -50, 0, -6.5000000000000006E-13, -7.6200000000000009E-13, 5.2
DataValue, 5.25, -50, 0, 1E-13, -9.1400000000000014E-13, 5.25
DataValue, 5.3, -50, 0, 0, -1.316E-12, 5.3
DataValue, 5.3500000000000005, -50, 0, -5E-14, -7.26E-13, 5.3500000000000005
DataValue, 5.4, -50, 0, 2.7E-13, -9.54E-13, 5.4
DataValue, 5.45, -50, 0, 4.5000000000000005E-13, -1.3480000000000001E-12, 5.45
DataValue, 5.5, -50, 0, 1.9000000000000002E-13, -2.318E-12, 5.5
DataValue, 5.55, -50, 0, 9.6000000000000015E-13, -1.59E-12, 5.55
DataValue, 5.6000000000000005, -50, 0, 5.3000000000000006E-13, -2.04E-12, 5.6000000000000005
DataValue, 5.65, -50, 0, 3.2000000000000005E-13, -2.0400000000000001E-13, 5.65
DataValue, 5.7, -50, 0, -2.4000000000000004E-13, -1.4740000000000002E-12, 5.7
DataValue, 5.75, -50, 0, -5E-14, -1.0100000000000001E-12, 5.75
DataValue, 5.8, -50, 0, 3.5E-13, -2.0700000000000003E-12, 5.8
DataValue, 5.8500000000000005, -50, 0, -1.8000000000000002E-13, -1.5280000000000002E-12, 5.8500000000000005
DataValue, 5.9, -50, 0, -2.6E-13, -1.1880000000000002E-12, 5.9
DataValue, 5.95, -50, 0, -1.02E-12, -8.66E-13, 5.95
DataValue, 6, -50, 0, 5.3000000000000006E-13, -7.2200000000000005E-13, 6
DataValue, 6.05, -50, 0, 6.3E-13, -1.6100000000000002E-12, 6.05
DataValue, 6.1000000000000005, -50, 0, 1.3E-13, -4.66E-13, 6.1000000000000005
DataValue, 6.15, -50, 0, 2.7E-13, -1.408E-12, 6.15
DataValue, 6.2, -50, 0, 3.0000000000000003E-13, -6.3E-13, 6.2
DataValue, 6.25, -50, 0, 1.4E-13, -1.4900000000000001E-12, 6.25
DataValue, 6.3, -50, 0, -8.0000000000000013E-14, -1.596E-12, 6.3
DataValue, 6.3500000000000005, -50, 0, 1.6000000000000003E-13, -1.86E-12, 6.3500000000000005
DataValue, 6.4, -50, 0, 6.8E-13, -1.8700000000000003E-12, 6.4
DataValue, 6.45, -50, 0, -5.3000000000000006E-13, -1.83E-12, 6.45
DataValue, 6.5, -50, 0, 5E-13, -9.88E-13, 6.5
DataValue, 6.55, -50, 0, 2.4000000000000004E-13, -7.28E-13, 6.55
DataValue, 6.6000000000000005, -50, 0, 3.3E-13, -1.26E-12, 6.6000000000000005
DataValue, 6.65, -50, 0, 2E-13, -7E-13, 6.65
DataValue, 6.7, -50, 0, 8.4000000000000006E-13, -3.2400000000000003E-13, 6.7
DataValue, 6.75, -50, 0, 6.2000000000000008E-13, -1.5700000000000002E-12, 6.75
DataValue, 6.8, -50, 0, -2.9000000000000003E-13, -1.93E-12, 6.8
DataValue, 6.8500000000000005, -50, 0, 0, -1.5300000000000001E-12, 6.8500000000000005
DataValue, 6.9, -50, 0, -3.7000000000000004E-13, -1.4440000000000001E-12, 6.9
DataValue, 6.95, -50, 0, 5.2E-13, -1.036E-12, 6.95
DataValue, 7, -50, 0, 5.4E-13, -1.6320000000000001E-12, 7
DataValue, 7.05, -50, 0, -2.9000000000000003E-13, -1.1500000000000002E-12, 7.05
DataValue, 7.1000000000000005, -50, 0, -1.6000000000000003E-13, -2.072E-12, 7.1000000000000005
DataValue, 7.15, -50, 0, 5.9E-13, -1.1540000000000001E-12, 7.15
DataValue, 7.2, -50, 0, 6.0000000000000009E-14, -8E-13, 7.2
DataValue, 7.25, -50, 0, -1E-13, -8.7400000000000011E-13, 7.25
DataValue, 7.3, -50, 0, 5.5000000000000008E-13, -2.156E-12, 7.3
DataValue, 7.3500000000000005, -50, 0, -3.8000000000000005E-13, -6.36E-13, 7.3500000000000005
DataValue, 7.4, -50, 0, 2.0000000000000003E-14, -9.54E-13, 7.4
DataValue, 7.45, -50, 0, 8.0000000000000013E-14, -8.7400000000000011E-13, 7.45
DataValue, 7.5, -50, 0, 5.8000000000000005E-13, -1.046E-12, 7.5
DataValue, 7.55, -50, 0, 4E-13, -1.858E-12, 7.55
DataValue, 7.6000000000000005, -50, 0, -1.4E-13, -1.3500000000000001E-12, 7.6000000000000005
DataValue, 7.65, -50, 0, -5E-14, -7.02E-13, 7.65
DataValue, 7.7, -50, 0, -6.8E-13, -7.54E-13, 7.7
DataValue, 7.75, -50, 0, -8.300000000000001E-13, -1.6080000000000002E-12, 7.75
DataValue, 7.8, -50, 0, 2.8E-13, -1.2800000000000002E-12, 7.8
DataValue, 7.8500000000000005, -50, 0, 3.2000000000000005E-13, -1.4680000000000002E-12, 7.8500000000000005
DataValue, 7.9, -50, 0, -2.6E-13, -1.222E-12, 7.9
DataValue, 7.95, -50, 0, 4.4000000000000004E-13, -7.6800000000000006E-13, 7.95
DataValue, 8, -50, 0, 2E-13, -6.400000000000001E-13, 8
DataValue, 8.05, -50, 0, 3.5E-13, -9.54E-13, 8.05
DataValue, 8.1, -50, 0, 8.0000000000000013E-14, -1.0160000000000001E-12, 8.1
DataValue, 8.15, -50, 0, 3.9000000000000005E-13, -4.98E-13, 8.15
DataValue, 8.2, -50, 0, 2.3000000000000003E-13, -1.454E-12, 8.2
DataValue, 8.25, -50, 0, 5.7E-13, -6.640000000000001E-13, 8.25
DataValue, 8.3, -50, 0, -2.4000000000000004E-13, -1.588E-12, 8.3
DataValue, 8.35, -50, 0, -3.2000000000000005E-13, -9.5800000000000016E-13, 8.35
DataValue, 8.4, -50, 0, -3.0000000000000005E-14, -8.5800000000000008E-13, 8.4
DataValue, 8.45, -50, 0, -2.6E-13, -9.44E-13, 8.45
DataValue, 8.5, -50, 0, 2E-13, -4.7800000000000008E-13, 8.5
DataValue, 8.55, -50, 0, 3.2000000000000005E-13, -1.558E-12, 8.55
DataValue, 8.6, -50, 0, 4.3000000000000004E-13, -1.5700000000000002E-12, 8.6
DataValue, 8.65, -50, 0, 1.0000000000000002E-14, -1.0480000000000002E-12, 8.65
DataValue, 8.7000000000000011, -50, 0, 7.3E-13, -1.366E-12, 8.7000000000000011
DataValue, 8.75, -50, 0, 8.2E-13, -8.5000000000000011E-13, 8.75
DataValue, 8.8, -50, 0, -1.02E-12, -1.7240000000000001E-12, 8.8
DataValue, 8.85, -50, 0, 4.4000000000000004E-13, -1.934E-12, 8.85
DataValue, 8.9, -50, 0, -1.2000000000000002E-13, -6.3E-13, 8.9
DataValue, 8.9500000000000011, -50, 0, 4.3000000000000004E-13, -1.17E-12, 8.9500000000000011
DataValue, 9, -50, 0, -2.3000000000000003E-13, -5.7400000000000008E-13, 9
DataValue, 9.05, -50, 0, 2.7E-13, -1.164E-12, 9.05
DataValue, 9.1, -50, 0, -2.4000000000000004E-13, -1.14E-12, 9.1
DataValue, 9.15, -50, 0, -3.9000000000000005E-13, -7E-13, 9.15
DataValue, 9.2000000000000011, -50, 0, 3.2000000000000005E-13, -1.1560000000000001E-12, 9.2000000000000011
DataValue, 9.25, -50, 0, 4.1E-13, -2.264E-12, 9.25
DataValue, 9.3, -50, 0, 5.6E-13, -1.778E-12, 9.3
DataValue, 9.35, -50, 0, 1.1000000000000001E-13, -1.546E-12, 9.35
