
SetupTitle, Transfer Curve
PrimitiveTest, I/V Sweep
TestParameter, Context.MainFrame, B1500A
TestParameter, Channel.UnitType, SMU, SMU, SMU
TestParameter, Channel.Unit, GNDU:GND, SMU3:MP, SMU4:MP
TestParameter, Channel.IName, Is, Id, Ig
TestParameter, Channel.VName, Vs, Vd, Vg
TestParameter, Channel.Mode, COMMON, V, V
TestParameter, Channel.Func, CONST, VAR2, VAR1
TestParameter, Channel.Index, 
TestParameter, Channel.Time, 
TestParameter, Measurement.Port.Unit, GNDU:GND, SMU3:MP, SMU4:MP
TestParameter, Measurement.Port.SeriesResistor, NONE, NONE, NONE
TestParameter, Measurement.Port.Filter, ON, ON, ON
TestParameter, Measurement.Port.OutputVoltageComparison, 0, 0, 0
TestParameter, Measurement.Primary.Locus, Single
TestParameter, Measurement.Primary.Scale, LINEAR
TestParameter, Measurement.Primary.Start, -50
TestParameter, Measurement.Primary.Stop, 50
TestParameter, Measurement.Primary.Step, 0.5
TestParameter, Measurement.Primary.Compliance, 1E-09
TestParameter, Measurement.Primary.PowerCompliance, 0
TestParameter, Measurement.Aborting.Condition, CONTINUE AT ANY
TestParameter, Measurement.PostOutput.Value, START
TestParameter, Measurement.PostOutput.Retention, OFF
TestParameter, Measurement.Secondary.Start, 0
TestParameter, Measurement.Secondary.Count, 11
TestParameter, Measurement.Secondary.Step, 1
TestParameter, Measurement.Secondary.Compliance, 1E-05
TestParameter, Measurement.Secondary.PowerCompliance, 0
TestParameter, Measurement.Bias.Source, 0, 0, -50
TestParameter, Measurement.Bias.Compliance, 2, 1E-05, 1E-09
TestParameter, Measurement.Monitor.Unit, GNDU:GND, SMU3:MP, SMU4:MP
TestParameter, Measurement.Monitor.Adc, HR ADC, HR ADC, HR ADC
TestParameter, Measurement.Monitor.Measurement, Compliance Side, Compliance Side, Compliance Side
TestParameter, Measurement.Monitor.RangingMode, LIMITED, LIMITED, LIMITED
TestParameter, Measurement.Monitor.RangeBoundary, 1nA, 1nA, 1nA
TestParameter, Measurement.Monitor.RangeRating, BY FULL RANGE, BY FULL RANGE, BY FULL RANGE
TestParameter, Measurement.Monitor.RangeRatingCoeff, 50, 50, 50
TestParameter, Measurement.Timing.Hold, 2
TestParameter, Measurement.Timing.Delay, 0
TestParameter, Measurement.Adc.HighSpeed.Mode, AUTO
TestParameter, Measurement.Adc.HighSpeed.Coeff, 1
TestParameter, Measurement.Adc.HighResolution.AutoZero, OFF
TestParameter, Measurement.Adc.HighResolution.Mode, AUTO
TestParameter, Measurement.Adc.HighResolution.Coeff, 6
TestParameter, Measurement.WaitTime.Source.Coeff, 1
TestParameter, Measurement.WaitTime.Source.Offset, 0
TestParameter, Measurement.WaitTime.Monitor.Coeff, 1
TestParameter, Measurement.WaitTime.Monitor.Offset, 0
TestParameter, Function.User.Name, absId, absIg
TestParameter, Function.User.Unit, , 
TestParameter, Function.User.Definition, abs(Id), abs(Ig)
TestParameter, Output.Graph.Enabled, true
TestParameter, Output.Graph.AutoScaling, false
TestParameter, Output.Graph.XAxis.Data, Vg
TestParameter, Output.Graph.XAxis.Scale, Linear
TestParameter, Output.Graph.XAxis.Left, -50
TestParameter, Output.Graph.XAxis.Right, 50
TestParameter, Output.Graph.XAxis.RunTimeAutoScale, false
TestParameter, Output.Graph.YAxis.Data, absIg, absId
TestParameter, Output.Graph.YAxis.Scale, Log, Log
TestParameter, Output.Graph.YAxis.Bottom, 0, 0
TestParameter, Output.Graph.YAxis.Top, 1, 1
TestParameter, Output.Graph.YAxis.Group, , 
TestParameter, Output.Graph.YAxis.RunTimeAutoScale, true, true
TestParameter, Output.List.Data, Vd, Id, Vg, Ig
TestParameter, AutoAnalysis.Interpolation, false
TestParameter, AutoAnalysis.Var2StepCount, 1
TestParameter, AutoAnalysis.Var2StepScript, 
TestParameter, AutoAnalysis.Line1.Enabled, false
TestParameter, AutoAnalysis.Line1.Type, 1
TestParameter, AutoAnalysis.Line1.Fix, True
TestParameter, AutoAnalysis.Line1.YAxis, 0
TestParameter, AutoAnalysis.Line1.Point1.Type, 0
TestParameter, AutoAnalysis.Line1.Point1.XY.X, 
TestParameter, AutoAnalysis.Line1.Point1.XY.Y, 
TestParameter, AutoAnalysis.Line1.Point1.Data.Var, 
TestParameter, AutoAnalysis.Line1.Point1.Data.Condition, 
TestParameter, AutoAnalysis.Line1.Point1.Data.Start, false
TestParameter, AutoAnalysis.Line1.Point1.Data.StartVar, 
TestParameter, AutoAnalysis.Line1.Point1.Data.StartCondition, 
TestParameter, AutoAnalysis.Line1.Point2.Type, 0
TestParameter, AutoAnalysis.Line1.Point2.XY.X, 
TestParameter, AutoAnalysis.Line1.Point2.XY.Y, 
TestParameter, AutoAnalysis.Line1.Point2.Data.Var, 
TestParameter, AutoAnalysis.Line1.Point2.Data.Condition, 
TestParameter, AutoAnalysis.Line1.Point2.Data.Start, false
TestParameter, AutoAnalysis.Line1.Point2.Data.StartVar, 
TestParameter, AutoAnalysis.Line1.Point2.Data.StartCondition, 
TestParameter, AutoAnalysis.Line1.GradientExpr, 0
TestParameter, AutoAnalysis.Line2.Enabled, false
TestParameter, AutoAnalysis.Line2.Type, 1
TestParameter, AutoAnalysis.Line2.Fix, True
TestParameter, AutoAnalysis.Line2.YAxis, 0
TestParameter, AutoAnalysis.Line2.Point1.Type, 0
TestParameter, AutoAnalysis.Line2.Point1.XY.X, 
TestParameter, AutoAnalysis.Line2.Point1.XY.Y, 
TestParameter, AutoAnalysis.Line2.Point1.Data.Var, 
TestParameter, AutoAnalysis.Line2.Point1.Data.Condition, 
TestParameter, AutoAnalysis.Line2.Point1.Data.Start, false
TestParameter, AutoAnalysis.Line2.Point1.Data.StartVar, 
TestParameter, AutoAnalysis.Line2.Point1.Data.StartCondition, 
TestParameter, AutoAnalysis.Line2.Point2.Type, 0
TestParameter, AutoAnalysis.Line2.Point2.XY.X, 
TestParameter, AutoAnalysis.Line2.Point2.XY.Y, 
TestParameter, AutoAnalysis.Line2.Point2.Data.Var, 
TestParameter, AutoAnalysis.Line2.Point2.Data.Condition, 
TestParameter, AutoAnalysis.Line2.Point2.Data.Start, false
TestParameter, AutoAnalysis.Line2.Point2.Data.StartVar, 
TestParameter, AutoAnalysis.Line2.Point2.Data.StartCondition, 
TestParameter, AutoAnalysis.Line2.GradientExpr, 0
TestParameter, AutoAnalysis.Marker.Enabled, false
TestParameter, AutoAnalysis.Marker.Data.Var, 
TestParameter, AutoAnalysis.Marker.Data.Condition, 
TestParameter, AutoAnalysis.Marker.Data.Start, false
TestParameter, AutoAnalysis.Marker.Data.StartVar, 
TestParameter, AutoAnalysis.Marker.Data.StartCondition, 
MetaData, TestRecord.EntryPoint, true
MetaData, TestRecord.RecordTime, 10/07/2025 22:57:30
MetaData, TestRecord.TestTarget, 
MetaData, TestRecord.IterationIndex, 1
MetaData, TestRecord.Preservation, true
MetaData, TestRecord.Flag, !
MetaData, TestRecord.Remarks, 
MetaData, TestRecord.LinkKey, fdbe2160-b650-42f1-94e6-6794367d17a5
MetaData, TestRecord.Parameters, 
Dimension1, 201, 201, 201, 201, 201, 201
Dimension2, 11, 11, 11, 11, 11, 11
DataName, Vg, Vd, Id, Ig, absId, absIg
DataValue, -50, 0, 3.6000000000000003E-13, -1.7240000000000001E-12, 3.6000000000000003E-13, 1.7240000000000001E-12
DataValue, -49.5, 0, -3.8000000000000005E-13, -1.6200000000000002E-12, 3.8000000000000005E-13, 1.6200000000000002E-12
DataValue, -49, 0, 8E-13, -1.32E-12, 8E-13, 1.32E-12
DataValue, -48.5, 0, 4.4000000000000004E-13, -2.0200000000000003E-12, 4.4000000000000004E-13, 2.0200000000000003E-12
DataValue, -48, 0, 2.8E-13, -9.54E-13, 2.8E-13, 9.54E-13
DataValue, -47.5, 0, 3.5E-13, -9.2000000000000012E-13, 3.5E-13, 9.2000000000000012E-13
DataValue, -47, 0, -4E-13, -7.04E-13, 4E-13, 7.04E-13
DataValue, -46.5, 0, 4.6000000000000006E-13, -1.2900000000000002E-12, 4.6000000000000006E-13, 1.2900000000000002E-12
DataValue, -46, 0, 4.0000000000000006E-14, -9.6400000000000013E-13, 4.0000000000000006E-14, 9.6400000000000013E-13
DataValue, -45.5, 0, -3.7000000000000004E-13, -5.1E-13, 3.7000000000000004E-13, 5.1E-13
DataValue, -45, 0, 1.5E-12, -7.04E-13, 1.5E-12, 7.04E-13
DataValue, -44.5, 0, -4.3000000000000004E-13, -3.52E-13, 4.3000000000000004E-13, 3.52E-13
DataValue, -44, 0, -7E-14, -1.5760000000000002E-12, 7E-14, 1.5760000000000002E-12
DataValue, -43.5, 0, -2.2000000000000002E-13, -7.32E-13, 2.2000000000000002E-13, 7.32E-13
DataValue, -43, 0, 1.1000000000000001E-13, -1.0980000000000002E-12, 1.1000000000000001E-13, 1.0980000000000002E-12
DataValue, -42.5, 0, -5.9E-13, -1.1440000000000002E-12, 5.9E-13, 1.1440000000000002E-12
DataValue, -42, 0, 3.9000000000000005E-13, -2.94E-13, 3.9000000000000005E-13, 2.94E-13
DataValue, -41.5, 0, 9.9E-13, -2.4200000000000003E-13, 9.9E-13, 2.4200000000000003E-13
DataValue, -41, 0, 5E-14, 1.18E-13, 5E-14, 1.18E-13
DataValue, -40.5, 0, 3.0000000000000005E-14, -3.3E-13, 3.0000000000000005E-14, 3.3E-13
DataValue, -40, 0, 8.5000000000000011E-13, -1.5600000000000002E-13, 8.5000000000000011E-13, 1.5600000000000002E-13
DataValue, -39.5, 0, -4.0000000000000006E-14, -6.2600000000000006E-13, 4.0000000000000006E-14, 6.2600000000000006E-13
DataValue, -39, 0, 6.5000000000000006E-13, -7.32E-13, 6.5000000000000006E-13, 7.32E-13
DataValue, -38.5, 0, -4E-13, -5.9600000000000009E-13, 4E-13, 5.9600000000000009E-13
DataValue, -38, 0, -6.8E-13, -7.4E-14, 6.8E-13, 7.4E-14
DataValue, -37.5, 0, -1.02E-12, 1.3800000000000002E-13, 1.02E-12, 1.3800000000000002E-13
DataValue, -37, 0, -4E-13, -7.02E-13, 4E-13, 7.02E-13
DataValue, -36.5, 0, 4.8000000000000008E-13, 2.6600000000000003E-13, 4.8000000000000008E-13, 2.6600000000000003E-13
DataValue, -36, 0, -4.8000000000000008E-13, -1.116E-12, 4.8000000000000008E-13, 1.116E-12
DataValue, -35.5, 0, 2.9000000000000003E-13, -4.4E-14, 2.9000000000000003E-13, 4.4E-14
DataValue, -35, 0, 2.0000000000000003E-14, -1.9200000000000002E-13, 2.0000000000000003E-14, 1.9200000000000002E-13
DataValue, -34.5, 0, -7.5E-13, -4.1400000000000005E-13, 7.5E-13, 4.1400000000000005E-13
DataValue, -34, 0, -1.6000000000000003E-13, -3.26E-13, 1.6000000000000003E-13, 3.26E-13
DataValue, -33.5, 0, -5.6E-13, 1.8600000000000002E-13, 5.6E-13, 1.8600000000000002E-13
DataValue, -33, 0, -6.9000000000000009E-13, 5.2800000000000007E-13, 6.9000000000000009E-13, 5.2800000000000007E-13
DataValue, -32.5, 0, -1.0000000000000002E-14, -6.86E-13, 1.0000000000000002E-14, 6.86E-13
DataValue, -32, 0, -1.3E-13, -6.0000000000000009E-14, 1.3E-13, 6.0000000000000009E-14
DataValue, -31.5, 0, -2.6E-13, -6.4200000000000009E-13, 2.6E-13, 6.4200000000000009E-13
DataValue, -31, 0, -4.2000000000000003E-13, -3.86E-13, 4.2000000000000003E-13, 3.86E-13
DataValue, -30.5, 0, -1.1100000000000001E-12, -5E-14, 1.1100000000000001E-12, 5E-14
DataValue, -30, 0, -9.1000000000000016E-13, 7.04E-13, 9.1000000000000016E-13, 7.04E-13
DataValue, -29.5, 0, -3.6000000000000003E-13, -2.1000000000000001E-13, 3.6000000000000003E-13, 2.1000000000000001E-13
DataValue, -29, 0, -1.6000000000000003E-13, -2.38E-13, 1.6000000000000003E-13, 2.38E-13
DataValue, -28.5, 0, -3.0000000000000003E-13, 3.6800000000000005E-13, 3.0000000000000003E-13, 3.6800000000000005E-13
DataValue, -28, 0, -3.0000000000000005E-14, 2.8E-14, 3.0000000000000005E-14, 2.8E-14
DataValue, -27.5, 0, 4.5000000000000005E-13, 5.84E-13, 4.5000000000000005E-13, 5.84E-13
DataValue, -27, 0, -4.7E-13, 5.34E-13, 4.7E-13, 5.34E-13
DataValue, -26.5, 0, -1.46E-12, 2.18E-13, 1.46E-12, 2.18E-13
DataValue, -26, 0, -5.3000000000000006E-13, 7.56E-13, 5.3000000000000006E-13, 7.56E-13
DataValue, -25.5, 0, -1.0100000000000001E-12, 7.2000000000000009E-14, 1.0100000000000001E-12, 7.2000000000000009E-14
DataValue, -25, 0, -1.1900000000000002E-12, 1.0800000000000001E-13, 1.1900000000000002E-12, 1.0800000000000001E-13
DataValue, -24.5, 0, -1.8400000000000002E-12, -2.94E-13, 1.8400000000000002E-12, 2.94E-13
DataValue, -24, 0, -3.0000000000000005E-14, 0, 3.0000000000000005E-14, 0
DataValue, -23.5, 0, -3.0000000000000003E-13, 1.16E-13, 3.0000000000000003E-13, 1.16E-13
DataValue, -23, 0, -1.5300000000000001E-12, 4.1800000000000004E-13, 1.5300000000000001E-12, 4.1800000000000004E-13
DataValue, -22.5, 0, 1.6000000000000003E-13, 7.28E-13, 1.6000000000000003E-13, 7.28E-13
DataValue, -22, 0, -5.8000000000000005E-13, 4.1E-13, 5.8000000000000005E-13, 4.1E-13
DataValue, -21.5, 0, -1.6000000000000003E-13, 4.0600000000000004E-13, 1.6000000000000003E-13, 4.0600000000000004E-13
DataValue, -21, 0, -1.4E-13, 4E-13, 1.4E-13, 4E-13
DataValue, -20.5, 0, -9.1000000000000016E-13, 1.114E-12, 9.1000000000000016E-13, 1.114E-12
DataValue, -20, 0, -1.27E-12, 5.8E-14, 1.27E-12, 5.8E-14
DataValue, -19.5, 0, -2.1200000000000003E-12, 6.56E-13, 2.1200000000000003E-12, 6.56E-13
DataValue, -19, 0, -1.21E-12, 6.58E-13, 1.21E-12, 6.58E-13
DataValue, -18.5, 0, -6.5000000000000006E-13, 5.7800000000000006E-13, 6.5000000000000006E-13, 5.7800000000000006E-13
DataValue, -18, 0, -6.400000000000001E-13, -2.6000000000000003E-14, 6.400000000000001E-13, 2.6000000000000003E-14
DataValue, -17.5, 0, -9.6000000000000015E-13, 3.74E-13, 9.6000000000000015E-13, 3.74E-13
DataValue, -17, 0, -1.5E-12, 3.3400000000000004E-13, 1.5E-12, 3.3400000000000004E-13
DataValue, -16.5, 0, -2.3000000000000003E-12, 3.4800000000000003E-13, 2.3000000000000003E-12, 3.4800000000000003E-13
DataValue, -16, 0, -9.9E-13, 7.04E-13, 9.9E-13, 7.04E-13
DataValue, -15.5, 0, -7.7000000000000005E-13, 2.0400000000000001E-13, 7.7000000000000005E-13, 2.0400000000000001E-13
DataValue, -15, 0, -2.6E-13, 3.08E-13, 2.6E-13, 3.08E-13
DataValue, -14.5, 0, -1.64E-12, 1.1580000000000001E-12, 1.64E-12, 1.1580000000000001E-12
DataValue, -14, 0, -3.7400000000000006E-12, 6.0200000000000006E-13, 3.7400000000000006E-12, 6.0200000000000006E-13
DataValue, -13.5, 0, -2.1700000000000002E-12, 9.46E-13, 2.1700000000000002E-12, 9.46E-13
DataValue, -13, 0, -2.31E-12, 1.2500000000000001E-12, 2.31E-12, 1.2500000000000001E-12
DataValue, -12.5, 0, -1.9E-12, 1.1460000000000002E-12, 1.9E-12, 1.1460000000000002E-12
DataValue, -12, 0, -4.5000000000000005E-13, 2.7E-13, 4.5000000000000005E-13, 2.7E-13
DataValue, -11.5, 0, 5.9E-13, 9.72E-13, 5.9E-13, 9.72E-13
DataValue, -11, 0, -2.9000000000000003E-13, 1.322E-12, 2.9000000000000003E-13, 1.322E-12
DataValue, -10.5, 0, -2.11E-12, 1.1560000000000001E-12, 2.11E-12, 1.1560000000000001E-12
DataValue, -10, 0, 5.5000000000000008E-13, 1.226E-12, 5.5000000000000008E-13, 1.226E-12
DataValue, -9.5, 0, -9.8E-13, 1.3920000000000001E-12, 9.8E-13, 1.3920000000000001E-12
DataValue, -9, 0, -1.93E-12, 6.7400000000000006E-13, 1.93E-12, 6.7400000000000006E-13
DataValue, -8.5, 0, -1.18E-12, 3.8000000000000005E-13, 1.18E-12, 3.8000000000000005E-13
DataValue, -8, 0, -4.79E-12, 9.6600000000000012E-13, 4.79E-12, 9.6600000000000012E-13
DataValue, -7.5, 0, -5.3000000000000006E-13, 8.8600000000000006E-13, 5.3000000000000006E-13, 8.8600000000000006E-13
DataValue, -7, 0, -8.1000000000000008E-13, 8.72E-13, 8.1000000000000008E-13, 8.72E-13
DataValue, -6.5, 0, -1.21E-12, 8.1000000000000008E-13, 1.21E-12, 8.1000000000000008E-13
DataValue, -6, 0, -3.28E-12, 1.114E-12, 3.28E-12, 1.114E-12
DataValue, -5.5, 0, 1.55E-12, 1.2400000000000002E-12, 1.55E-12, 1.2400000000000002E-12
DataValue, -5, 0, -1.4400000000000001E-12, 1.03E-12, 1.4400000000000001E-12, 1.03E-12
DataValue, -4.5, 0, -4.07E-12, 1.3440000000000001E-12, 4.07E-12, 1.3440000000000001E-12
DataValue, -4, 0, -4.6100000000000008E-12, 9.32E-13, 4.6100000000000008E-12, 9.32E-13
DataValue, -3.5, 0, -4.3500000000000006E-12, 1.8160000000000001E-12, 4.3500000000000006E-12, 1.8160000000000001E-12
DataValue, -3, 0, -3.3100000000000002E-12, 9.98E-13, 3.3100000000000002E-12, 9.98E-13
DataValue, -2.5, 0, -6.8E-13, 3.4E-13, 6.8E-13, 3.4E-13
DataValue, -2, 0, -9.8E-13, 7.78E-13, 9.8E-13, 7.78E-13
DataValue, -1.5, 0, -6.86E-12, 1.3320000000000002E-12, 6.86E-12, 1.3320000000000002E-12
DataValue, -1, 0, -1.1600000000000001E-12, 1.898E-12, 1.1600000000000001E-12, 1.898E-12
DataValue, -0.5, 0, -1.14E-12, 8.760000000000001E-13, 1.14E-12, 8.760000000000001E-13
DataValue, 0, 0, -2.34E-12, 1.9700000000000003E-12, 2.34E-12, 1.9700000000000003E-12
DataValue, 0.5, 0, -4.3400000000000005E-12, 1.116E-12, 4.3400000000000005E-12, 1.116E-12
DataValue, 1, 0, -6.91E-12, 1.644E-12, 6.91E-12, 1.644E-12
DataValue, 1.5, 0, -1.3900000000000001E-12, 1.6340000000000001E-12, 1.3900000000000001E-12, 1.6340000000000001E-12
DataValue, 2, 0, 6.2000000000000008E-13, 1.964E-12, 6.2000000000000008E-13, 1.964E-12
DataValue, 2.5, 0, -5.1600000000000006E-12, 2.16E-12, 5.1600000000000006E-12, 2.16E-12
DataValue, 3, 0, -6.1700000000000006E-12, 1.8080000000000002E-12, 6.1700000000000006E-12, 1.8080000000000002E-12
DataValue, 3.5, 0, -4.77E-12, 7.9000000000000007E-13, 4.77E-12, 7.9000000000000007E-13
DataValue, 4, 0, 3.1400000000000004E-12, 4.5400000000000003E-13, 3.1400000000000004E-12, 4.5400000000000003E-13
DataValue, 4.5, 0, -5.5700000000000007E-12, 1.3980000000000001E-12, 5.5700000000000007E-12, 1.3980000000000001E-12
DataValue, 5, 0, -2.3200000000000002E-12, 6.2000000000000008E-13, 2.3200000000000002E-12, 6.2000000000000008E-13
DataValue, 5.5, 0, -5.38E-12, 1.2480000000000001E-12, 5.38E-12, 1.2480000000000001E-12
DataValue, 6, 0, -3.9900000000000006E-12, 1.1900000000000002E-12, 3.9900000000000006E-12, 1.1900000000000002E-12
DataValue, 6.5, 0, -5.3100000000000006E-12, 1.8060000000000002E-12, 5.3100000000000006E-12, 1.8060000000000002E-12
DataValue, 7, 0, -3.9000000000000005E-13, 1.6260000000000001E-12, 3.9000000000000005E-13, 1.6260000000000001E-12
DataValue, 7.5, 0, 2.1000000000000001E-13, 1.9700000000000003E-12, 2.1000000000000001E-13, 1.9700000000000003E-12
DataValue, 8, 0, -7.11E-12, 2.034E-12, 7.11E-12, 2.034E-12
DataValue, 8.5, 0, -3.77E-12, 1.306E-12, 3.77E-12, 1.306E-12
DataValue, 9, 0, -7.0800000000000005E-12, 2.026E-12, 7.0800000000000005E-12, 2.026E-12
DataValue, 9.5, 0, -2.44E-12, 1.64E-12, 2.44E-12, 1.64E-12
DataValue, 10, 0, -1.018E-11, 2.134E-12, 1.018E-11, 2.134E-12
DataValue, 10.5, 0, -1.0400000000000001E-11, 2.09E-12, 1.0400000000000001E-11, 2.09E-12
DataValue, 11, 0, -5.03E-12, 1.7720000000000001E-12, 5.03E-12, 1.7720000000000001E-12
DataValue, 11.5, 0, -9.03E-12, 1.6080000000000002E-12, 9.03E-12, 1.6080000000000002E-12
DataValue, 12, 0, -5E-13, 1.4E-12, 5E-13, 1.4E-12
DataValue, 12.5, 0, -4.02E-12, 1.7760000000000001E-12, 4.02E-12, 1.7760000000000001E-12
DataValue, 13, 0, 1.4800000000000002E-12, 1.022E-12, 1.4800000000000002E-12, 1.022E-12
DataValue, 13.5, 0, -4.0400000000000006E-12, 1.46E-12, 4.0400000000000006E-12, 1.46E-12
DataValue, 14, 0, -5.9700000000000006E-12, 1.412E-12, 5.9700000000000006E-12, 1.412E-12
DataValue, 14.5, 0, -7.41E-12, 1.41E-12, 7.41E-12, 1.41E-12
DataValue, 15, 0, -6.4900000000000008E-12, 1.7460000000000002E-12, 6.4900000000000008E-12, 1.7460000000000002E-12
DataValue, 15.5, 0, 2.1000000000000003E-12, 2.0080000000000003E-12, 2.1000000000000003E-12, 2.0080000000000003E-12
DataValue, 16, 0, -8.04E-12, 1.5320000000000001E-12, 8.04E-12, 1.5320000000000001E-12
DataValue, 16.5, 0, -9.35E-12, 1.4720000000000002E-12, 9.35E-12, 1.4720000000000002E-12
DataValue, 17, 0, -6.4700000000000005E-12, 2.3540000000000003E-12, 6.4700000000000005E-12, 2.3540000000000003E-12
DataValue, 17.5, 0, -6.76E-12, 2.1880000000000004E-12, 6.76E-12, 2.1880000000000004E-12
DataValue, 18, 0, -5.59E-12, 1.414E-12, 5.59E-12, 1.414E-12
DataValue, 18.5, 0, -8.0900000000000013E-12, 1.8940000000000002E-12, 8.0900000000000013E-12, 1.8940000000000002E-12
DataValue, 19, 0, 2.29E-12, 2.2580000000000003E-12, 2.29E-12, 2.2580000000000003E-12
DataValue, 19.5, 0, 9.0000000000000008E-14, 2.2120000000000003E-12, 9.0000000000000008E-14, 2.2120000000000003E-12
DataValue, 20, 0, 6.5300000000000007E-12, 2.2120000000000003E-12, 6.5300000000000007E-12, 2.2120000000000003E-12
DataValue, 20.5, 0, -1.3400000000000002E-12, 2.2200000000000002E-12, 1.3400000000000002E-12, 2.2200000000000002E-12
DataValue, 21, 0, -3.4E-13, 1.5840000000000001E-12, 3.4E-13, 1.5840000000000001E-12
DataValue, 21.5, 0, -3.35E-12, 2.2660000000000002E-12, 3.35E-12, 2.2660000000000002E-12
DataValue, 22, 0, -4.2400000000000005E-12, 2.052E-12, 4.2400000000000005E-12, 2.052E-12
DataValue, 22.5, 0, -3.2100000000000003E-12, 1.83E-12, 3.2100000000000003E-12, 1.83E-12
