
SetupTitle, Output Curve
PrimitiveTest, I/V Sweep
TestParameter, Context.MainFrame, B1500A
TestParameter, Channel.UnitType, SMU, SMU, SMU
TestParameter, Channel.Unit, GNDU:GND, SMU3:MP, SMU4:MP
TestParameter, Channel.IName, Is, Id, Ig
TestParameter, Channel.VName, Vs, Vd, Vg
TestParameter, Channel.Mode, COMMON, V, V
TestParameter, Channel.Func, CONST, VAR1, VAR2
TestParameter, Channel.Index, 
TestParameter, Channel.Time, 
TestParameter, Measurement.Port.Unit, GNDU:GND, SMU3:MP, SMU4:MP
TestParameter, Measurement.Port.SeriesResistor, NONE, NONE, NONE
TestParameter, Measurement.Port.Filter, ON, ON, ON
TestParameter, Measurement.Port.OutputVoltageComparison, 0, 0, 0
TestParameter, Measurement.Primary.Locus, Single
TestParameter, Measurement.Primary.Scale, LINEAR
TestParameter, Measurement.Primary.Start, 0
TestParameter, Measurement.Primary.Stop, 10
TestParameter, Measurement.Primary.Step, 0.05
TestParameter, Measurement.Primary.Compliance, 1E-05
TestParameter, Measurement.Primary.PowerCompliance, 0
TestParameter, Measurement.Aborting.Condition, CONTINUE AT ANY
TestParameter, Measurement.PostOutput.Value, START
TestParameter, Measurement.PostOutput.Retention, OFF
TestParameter, Measurement.Secondary.Start, -50
TestParameter, Measurement.Secondary.Count, 11
TestParameter, Measurement.Secondary.Step, 10
TestParameter, Measurement.Secondary.Compliance, 1E-09
TestParameter, Measurement.Secondary.PowerCompliance, 0
TestParameter, Measurement.Bias.Source, 0, 0, -50
TestParameter, Measurement.Bias.Compliance, 2, 1E-05, 1E-09
TestParameter, Measurement.Monitor.Unit, GNDU:GND, SMU3:MP, SMU4:MP
TestParameter, Measurement.Monitor.Adc, HR ADC, HR ADC, HR ADC
TestParameter, Measurement.Monitor.Measurement, Compliance Side, Compliance Side, Compliance Side
TestParameter, Measurement.Monitor.RangingMode, LIMITED, LIMITED, LIMITED
TestParameter, Measurement.Monitor.RangeBoundary, 1nA, 1nA, 1nA
TestParameter, Measurement.Monitor.RangeRating, BY FULL RANGE, BY FULL RANGE, BY FULL RANGE
TestParameter, Measurement.Monitor.RangeRatingCoeff, 50, 50, 50
TestParameter, Measurement.Timing.Hold, 2
TestParameter, Measurement.Timing.Delay, 0
TestParameter, Measurement.Adc.HighSpeed.Mode, AUTO
TestParameter, Measurement.Adc.HighSpeed.Coeff, 1
TestParameter, Measurement.Adc.HighResolution.AutoZero, OFF
TestParameter, Measurement.Adc.HighResolution.Mode, AUTO
TestParameter, Measurement.Adc.HighResolution.Coeff, 6
TestParameter, Measurement.WaitTime.Source.Coeff, 1
TestParameter, Measurement.WaitTime.Source.Offset, 0
TestParameter, Measurement.WaitTime.Monitor.Coeff, 1
TestParameter, Measurement.WaitTime.Monitor.Offset, 0
TestParameter, Function.User.Name, Vds
TestParameter, Function.User.Unit, V
TestParameter, Function.User.Definition, Vd-Vs
TestParameter, Output.Graph.Enabled, true
TestParameter, Output.Graph.AutoScaling, false
TestParameter, Output.Graph.XAxis.Data, Vds
TestParameter, Output.Graph.XAxis.Scale, Linear
TestParameter, Output.Graph.XAxis.Left, 0
TestParameter, Output.Graph.XAxis.Right, 10
TestParameter, Output.Graph.XAxis.RunTimeAutoScale, false
TestParameter, Output.Graph.YAxis.Data, Id
TestParameter, Output.Graph.YAxis.Scale, Linear
TestParameter, Output.Graph.YAxis.Bottom, -1E-05
TestParameter, Output.Graph.YAxis.Top, 1E-05
TestParameter, Output.Graph.YAxis.Group, 
TestParameter, Output.Graph.YAxis.RunTimeAutoScale, true
TestParameter, Output.List.Data, Vd, Id, Vg, Ig
TestParameter, AutoAnalysis.Interpolation, false
TestParameter, AutoAnalysis.Var2StepCount, 1
TestParameter, AutoAnalysis.Var2StepScript, 
TestParameter, AutoAnalysis.Line1.Enabled, false
TestParameter, AutoAnalysis.Line1.Type, 1
TestParameter, AutoAnalysis.Line1.Fix, True
TestParameter, AutoAnalysis.Line1.YAxis, 0
TestParameter, AutoAnalysis.Line1.Point1.Type, 0
TestParameter, AutoAnalysis.Line1.Point1.XY.X, 
TestParameter, AutoAnalysis.Line1.Point1.XY.Y, 
TestParameter, AutoAnalysis.Line1.Point1.Data.Var, 
TestParameter, AutoAnalysis.Line1.Point1.Data.Condition, 
TestParameter, AutoAnalysis.Line1.Point1.Data.Start, false
TestParameter, AutoAnalysis.Line1.Point1.Data.StartVar, 
TestParameter, AutoAnalysis.Line1.Point1.Data.StartCondition, 
TestParameter, AutoAnalysis.Line1.Point2.Type, 0
TestParameter, AutoAnalysis.Line1.Point2.XY.X, 
TestParameter, AutoAnalysis.Line1.Point2.XY.Y, 
TestParameter, AutoAnalysis.Line1.Point2.Data.Var, 
TestParameter, AutoAnalysis.Line1.Point2.Data.Condition, 
TestParameter, AutoAnalysis.Line1.Point2.Data.Start, false
TestParameter, AutoAnalysis.Line1.Point2.Data.StartVar, 
TestParameter, AutoAnalysis.Line1.Point2.Data.StartCondition, 
TestParameter, AutoAnalysis.Line1.GradientExpr, 0
TestParameter, AutoAnalysis.Line2.Enabled, false
TestParameter, AutoAnalysis.Line2.Type, 1
TestParameter, AutoAnalysis.Line2.Fix, True
TestParameter, AutoAnalysis.Line2.YAxis, 0
TestParameter, AutoAnalysis.Line2.Point1.Type, 0
TestParameter, AutoAnalysis.Line2.Point1.XY.X, 
TestParameter, AutoAnalysis.Line2.Point1.XY.Y, 
TestParameter, AutoAnalysis.Line2.Point1.Data.Var, 
TestParameter, AutoAnalysis.Line2.Point1.Data.Condition, 
TestParameter, AutoAnalysis.Line2.Point1.Data.Start, false
TestParameter, AutoAnalysis.Line2.Point1.Data.StartVar, 
TestParameter, AutoAnalysis.Line2.Point1.Data.StartCondition, 
TestParameter, AutoAnalysis.Line2.Point2.Type, 0
TestParameter, AutoAnalysis.Line2.Point2.XY.X, 
TestParameter, AutoAnalysis.Line2.Point2.XY.Y, 
TestParameter, AutoAnalysis.Line2.Point2.Data.Var, 
TestParameter, AutoAnalysis.Line2.Point2.Data.Condition, 
TestParameter, AutoAnalysis.Line2.Point2.Data.Start, false
TestParameter, AutoAnalysis.Line2.Point2.Data.StartVar, 
TestParameter, AutoAnalysis.Line2.Point2.Data.StartCondition, 
TestParameter, AutoAnalysis.Line2.GradientExpr, 0
TestParameter, AutoAnalysis.Marker.Enabled, false
TestParameter, AutoAnalysis.Marker.Data.Var, 
TestParameter, AutoAnalysis.Marker.Data.Condition, 
TestParameter, AutoAnalysis.Marker.Data.Start, false
TestParameter, AutoAnalysis.Marker.Data.StartVar, 
TestParameter, AutoAnalysis.Marker.Data.StartCondition, 
MetaData, TestRecord.EntryPoint, true
MetaData, TestRecord.RecordTime, 10/07/2025 21:53:40
MetaData, TestRecord.TestTarget, CHIP012_O7
MetaData, TestRecord.IterationIndex, 3
MetaData, TestRecord.Preservation, true
MetaData, TestRecord.Flag, #
MetaData, TestRecord.Remarks, 
MetaData, TestRecord.LinkKey, 623279ca-b435-408e-942f-df7f4c75d884
MetaData, TestRecord.Parameters, 
Dimension1, 201, 201, 201, 201, 201, 201
Dimension2, 11, 11, 11, 11, 11, 11
DataName, Vd, Vg, Vs, Id, Ig, Vds
DataValue, 0, -50, 0, -6.0000000000000009E-14, -8.7400000000000011E-13, 0
DataValue, 0.05, -50, 0, 5.9E-13, -1.3320000000000002E-12, 0.05
DataValue, 0.1, -50, 0, -2.7E-13, -1.182E-12, 0.1
DataValue, 0.15, -50, 0, -5E-13, -5.62E-13, 0.15
DataValue, 0.2, -50, 0, 2.0000000000000003E-14, 8E-15, 0.2
DataValue, 0.25, -50, 0, 2.4000000000000004E-13, -2.2600000000000002E-13, 0.25
DataValue, 0.3, -50, 0, -1.5000000000000002E-13, -1.1920000000000002E-12, 0.3
DataValue, 0.35000000000000003, -50, 0, -8.0000000000000013E-14, -7.52E-13, 0.35000000000000003
DataValue, 0.4, -50, 0, -2.6E-13, -2.48E-13, 0.4
DataValue, 0.45, -50, 0, -4.5000000000000005E-13, 3.8400000000000003E-13, 0.45
DataValue, 0.5, -50, 0, 3.7000000000000004E-13, -1.6000000000000003E-13, 0.5
DataValue, 0.55, -50, 0, -1.1000000000000001E-13, 2.4000000000000004E-13, 0.55
DataValue, 0.6, -50, 0, 1.7E-13, -5.0400000000000007E-13, 0.6
DataValue, 0.65, -50, 0, -2.7E-13, -2.92E-13, 0.65
DataValue, 0.70000000000000007, -50, 0, 2.01E-12, -1.1400000000000002E-13, 0.70000000000000007
DataValue, 0.75, -50, 0, 2.1000000000000001E-13, -9.0800000000000007E-13, 0.75
DataValue, 0.8, -50, 0, -1.1000000000000002E-12, -7.98E-13, 0.8
DataValue, 0.85, -50, 0, 5E-13, -1.364E-12, 0.85
DataValue, 0.9, -50, 0, -6.0000000000000009E-14, -4.5000000000000005E-13, 0.9
DataValue, 0.95000000000000007, -50, 0, -5.1E-13, -2.0800000000000002E-13, 0.95000000000000007
DataValue, 1, -50, 0, 1.08E-12, 5.58E-13, 1
DataValue, 1.05, -50, 0, -3.4E-13, -9.6800000000000012E-13, 1.05
DataValue, 1.1, -50, 0, 3.4E-13, -3.1000000000000004E-13, 1.1
DataValue, 1.1500000000000001, -50, 0, 2.0000000000000003E-14, -2.0800000000000002E-13, 1.1500000000000001
DataValue, 1.2, -50, 0, 1.5000000000000002E-13, 4.5000000000000005E-13, 1.2
DataValue, 1.25, -50, 0, -8.4000000000000006E-13, -3.4800000000000003E-13, 1.25
DataValue, 1.3, -50, 0, -3.1000000000000004E-13, 1.36E-13, 1.3
DataValue, 1.35, -50, 0, 3.8000000000000005E-13, -3.4E-14, 1.35
DataValue, 1.4000000000000001, -50, 0, 7.5E-13, -6.4800000000000007E-13, 1.4000000000000001
DataValue, 1.45, -50, 0, 9.5E-13, 3.42E-13, 1.45
DataValue, 1.5, -50, 0, 6.0000000000000009E-14, -8.18E-13, 1.5
DataValue, 1.55, -50, 0, -5.1E-13, -5.0800000000000006E-13, 1.55
DataValue, 1.6, -50, 0, 6.0000000000000009E-14, -4.0400000000000005E-13, 1.6
DataValue, 1.6500000000000001, -50, 0, -7.2000000000000006E-13, -1.9600000000000002E-13, 1.6500000000000001
DataValue, 1.7, -50, 0, -3.0000000000000003E-13, -3.78E-13, 1.7
DataValue, 1.75, -50, 0, 2.9000000000000003E-13, 3.66E-13, 1.75
DataValue, 1.8, -50, 0, 3.3E-13, -1.6200000000000002E-13, 1.8
DataValue, 1.85, -50, 0, 2.8E-13, 1.4400000000000002E-13, 1.85
DataValue, 1.9000000000000001, -50, 0, 8E-13, 1.52E-13, 1.9000000000000001
DataValue, 1.95, -50, 0, 6.0000000000000007E-13, 4.4E-14, 1.95
DataValue, 2, -50, 0, -2.3000000000000003E-13, 3.3600000000000003E-13, 2
DataValue, 2.05, -50, 0, -4.7E-13, -7.8600000000000008E-13, 2.05
DataValue, 2.1, -50, 0, 6.5000000000000006E-13, -8.9800000000000011E-13, 2.1
DataValue, 2.15, -50, 0, -5.6E-13, -4.7800000000000008E-13, 2.15
DataValue, 2.2, -50, 0, -3.6000000000000003E-13, -5.6E-13, 2.2
DataValue, 2.25, -50, 0, -1.1000000000000001E-13, -2.2600000000000002E-13, 2.25
DataValue, 2.3000000000000003, -50, 0, 1.6000000000000003E-13, 3.86E-13, 2.3000000000000003
DataValue, 2.35, -50, 0, -9.0000000000000008E-14, -5.4800000000000009E-13, 2.35
DataValue, 2.4, -50, 0, 1.6000000000000003E-13, -1.3800000000000002E-13, 2.4
DataValue, 2.45, -50, 0, -7.7000000000000005E-13, -1.0800000000000001E-13, 2.45
DataValue, 2.5, -50, 0, -2.9000000000000003E-13, -1.366E-12, 2.5
DataValue, 2.5500000000000003, -50, 0, -7.2000000000000006E-13, -5.22E-13, 2.5500000000000003
DataValue, 2.6, -50, 0, -2E-13, -6.1E-13, 2.6
DataValue, 2.65, -50, 0, -4.4000000000000004E-13, -6.12E-13, 2.65
DataValue, 2.7, -50, 0, 4.7E-13, 2.0000000000000003E-14, 2.7
DataValue, 2.75, -50, 0, -5.2E-13, 1.7E-13, 2.75
DataValue, 2.8000000000000003, -50, 0, -1.02E-12, -4.0600000000000004E-13, 2.8000000000000003
DataValue, 2.85, -50, 0, -2.1000000000000001E-13, -2.24E-13, 2.85
DataValue, 2.9, -50, 0, -9.9E-13, 1.24E-13, 2.9
DataValue, 2.95, -50, 0, -4.5000000000000005E-13, 5.68E-13, 2.95
DataValue, 3, -50, 0, -7.9000000000000007E-13, 1.88E-13, 3
DataValue, 3.0500000000000003, -50, 0, -4.0000000000000006E-14, -2.0400000000000001E-13, 3.0500000000000003
DataValue, 3.1, -50, 0, -1.0500000000000002E-12, -6.400000000000001E-13, 3.1
DataValue, 3.15, -50, 0, -2.3000000000000003E-13, -4.5000000000000005E-13, 3.15
DataValue, 3.2, -50, 0, -1.32E-12, 5.7800000000000006E-13, 3.2
DataValue, 3.25, -50, 0, -6.6E-13, -7.1600000000000008E-13, 3.25
DataValue, 3.3000000000000003, -50, 0, -8.8000000000000009E-13, -9.9E-13, 3.3000000000000003
DataValue, 3.35, -50, 0, -4.8000000000000008E-13, -5.9800000000000008E-13, 3.35
DataValue, 3.4, -50, 0, -1.1000000000000001E-13, -8.4000000000000006E-13, 3.4
DataValue, 3.45, -50, 0, -6.2000000000000008E-13, 8.6000000000000012E-14, 3.45
DataValue, 3.5, -50, 0, 2.7E-13, 4.24E-13, 3.5
DataValue, 3.5500000000000003, -50, 0, -5.7E-13, -4E-13, 3.5500000000000003
DataValue, 3.6, -50, 0, 5.6E-13, -1E-13, 3.6
DataValue, 3.65, -50, 0, 3.5E-13, 8.0000000000000013E-14, 3.65
DataValue, 3.7, -50, 0, -9.000000000000001E-13, 5.2400000000000009E-13, 3.7
DataValue, 3.75, -50, 0, -2.0000000000000003E-14, -5.9800000000000008E-13, 3.75
DataValue, 3.8000000000000003, -50, 0, -1.8000000000000002E-13, -5.2600000000000008E-13, 3.8000000000000003
DataValue, 3.85, -50, 0, -6.7000000000000007E-13, -5.8000000000000005E-13, 3.85
DataValue, 3.9, -50, 0, 1.2000000000000002E-13, 2.2600000000000002E-13, 3.9
DataValue, 3.95, -50, 0, 2.8E-13, 1.6E-14, 3.95
DataValue, 4, -50, 0, -1.2400000000000002E-12, -5.88E-13, 4
DataValue, 4.05, -50, 0, -5E-13, -4.8000000000000008E-13, 4.05
DataValue, 4.1, -50, 0, 9.0000000000000008E-14, -1.0940000000000002E-12, 4.1
DataValue, 4.15, -50, 0, 3.8000000000000005E-13, -4.0600000000000004E-13, 4.15
DataValue, 4.2, -50, 0, 1.7E-13, -4.4200000000000004E-13, 4.2
DataValue, 4.25, -50, 0, -6.1E-13, 4.0200000000000005E-13, 4.25
DataValue, 4.3, -50, 0, -6.5000000000000006E-13, -5.9E-13, 4.3
DataValue, 4.3500000000000005, -50, 0, 5.8000000000000005E-13, -4.48E-13, 4.3500000000000005
DataValue, 4.4, -50, 0, 5E-14, -7.3E-13, 4.4
DataValue, 4.45, -50, 0, -5.4E-13, -1.4760000000000002E-12, 4.45
DataValue, 4.5, -50, 0, 6.9000000000000009E-13, -1.82E-13, 4.5
DataValue, 4.55, -50, 0, 3.4E-13, -2.1600000000000001E-13, 4.55
DataValue, 4.6000000000000005, -50, 0, 1.4E-13, -5.1E-13, 4.6000000000000005
DataValue, 4.65, -50, 0, 2.8E-13, -5.44E-13, 4.65
DataValue, 4.7, -50, 0, -6.0000000000000009E-14, 2.4000000000000004E-13, 4.7
DataValue, 4.75, -50, 0, -7E-14, -1.9200000000000002E-13, 4.75
DataValue, 4.8, -50, 0, 3.8000000000000005E-13, -4.2000000000000004E-14, 4.8
DataValue, 4.8500000000000005, -50, 0, -2.9000000000000003E-13, 1.6000000000000003E-13, 4.8500000000000005
DataValue, 4.9, -50, 0, -2.0000000000000003E-14, -1.6E-14, 4.9
DataValue, 4.95, -50, 0, -7.7000000000000005E-13, -2.8E-13, 4.95
DataValue, 5, -50, 0, 1.1000000000000001E-13, -2.38E-13, 5
DataValue, 5.05, -50, 0, -1.03E-12, -1.42E-13, 5.05
DataValue, 5.1000000000000005, -50, 0, -7E-14, -2.44E-13, 5.1000000000000005
DataValue, 5.15, -50, 0, -5E-13, -3.06E-13, 5.15
DataValue, 5.2, -50, 0, -6.0000000000000007E-13, -1.64E-13, 5.2
DataValue, 5.25, -50, 0, -1.2000000000000002E-13, -4.48E-13, 5.25
DataValue, 5.3, -50, 0, -1.9000000000000002E-13, -4.1400000000000005E-13, 5.3
DataValue, 5.3500000000000005, -50, 0, 1.8000000000000002E-13, -2.1400000000000002E-13, 5.3500000000000005
DataValue, 5.4, -50, 0, -6.3E-13, -3.86E-13, 5.4
DataValue, 5.45, -50, 0, -9.3E-13, -2.6200000000000004E-13, 5.45
DataValue, 5.5, -50, 0, 2.1000000000000001E-13, -4.24E-13, 5.5
DataValue, 5.55, -50, 0, -1.04E-12, -9.0800000000000007E-13, 5.55
DataValue, 5.6000000000000005, -50, 0, -9.0000000000000008E-14, -2.1000000000000001E-13, 5.6000000000000005
DataValue, 5.65, -50, 0, -6.7000000000000007E-13, -3.9200000000000005E-13, 5.65
DataValue, 5.7, -50, 0, -7.100000000000001E-13, -7.6200000000000009E-13, 5.7
DataValue, 5.75, -50, 0, -1.0100000000000001E-12, -1.3E-13, 5.75
DataValue, 5.8, -50, 0, -1.1000000000000001E-13, -1.8400000000000002E-13, 5.8
DataValue, 5.8500000000000005, -50, 0, -7.9000000000000007E-13, 2.94E-13, 5.8500000000000005
DataValue, 5.9, -50, 0, -2.4000000000000004E-13, 1.2600000000000002E-13, 5.9
DataValue, 5.95, -50, 0, 3.7000000000000004E-13, -4.8000000000000008E-13, 5.95
DataValue, 6, -50, 0, -5.5000000000000008E-13, -1.1580000000000001E-12, 6
DataValue, 6.05, -50, 0, 4.1E-13, -1.946E-12, 6.05
DataValue, 6.1000000000000005, -50, 0, -1.2000000000000002E-13, -2.9800000000000004E-13, 6.1000000000000005
DataValue, 6.15, -50, 0, -1.8000000000000002E-13, 1.9600000000000002E-13, 6.15
DataValue, 6.2, -50, 0, 3.0000000000000003E-13, -1.0000000000000002E-14, 6.2
DataValue, 6.25, -50, 0, 5E-14, -4.5000000000000005E-13, 6.25
DataValue, 6.3, -50, 0, -3.1000000000000004E-13, -5.6E-14, 6.3
DataValue, 6.3500000000000005, -50, 0, -1.9000000000000002E-13, -7.72E-13, 6.3500000000000005
DataValue, 6.4, -50, 0, -4.7E-13, 5.4000000000000003E-14, 6.4
DataValue, 6.45, -50, 0, 1.4E-13, -1.1920000000000002E-12, 6.45
DataValue, 6.5, -50, 0, 1.9000000000000002E-13, -4.74E-13, 6.5
DataValue, 6.55, -50, 0, 1.4E-13, -8.760000000000001E-13, 6.55
DataValue, 6.6000000000000005, -50, 0, -9.0000000000000008E-14, 1.6000000000000003E-13, 6.6000000000000005
DataValue, 6.65, -50, 0, -3.6000000000000003E-13, 3.0200000000000003E-13, 6.65
DataValue, 6.7, -50, 0, 3.5E-13, -2.56E-13, 6.7
DataValue, 6.75, -50, 0, 3.6000000000000003E-13, 1E-13, 6.75
DataValue, 6.8, -50, 0, 2.0000000000000003E-14, -1.074E-12, 6.8
DataValue, 6.8500000000000005, -50, 0, -2.3000000000000003E-13, -4.7800000000000008E-13, 6.8500000000000005
DataValue, 6.9, -50, 0, 4.0000000000000006E-14, -8.5200000000000011E-13, 6.9
DataValue, 6.95, -50, 0, -4.2000000000000003E-13, -3.3E-13, 6.95
DataValue, 7, -50, 0, 2.3000000000000003E-13, -1.03E-12, 7
DataValue, 7.05, -50, 0, 2.2000000000000002E-13, -4.68E-13, 7.05
DataValue, 7.1000000000000005, -50, 0, 4.8000000000000008E-13, 4E-15, 7.1000000000000005
DataValue, 7.15, -50, 0, 4.3000000000000004E-13, -5.3000000000000006E-13, 7.15
DataValue, 7.2, -50, 0, 1.9000000000000002E-13, -7.28E-13, 7.2
DataValue, 7.25, -50, 0, -2.0000000000000003E-14, -7.2000000000000006E-13, 7.25
DataValue, 7.3, -50, 0, 3.9000000000000005E-13, -1.2600000000000002E-13, 7.3
DataValue, 7.3500000000000005, -50, 0, 9.2000000000000012E-13, 3.86E-13, 7.3500000000000005
DataValue, 7.4, -50, 0, 3.4E-13, 6.7200000000000006E-13, 7.4
DataValue, 7.45, -50, 0, 5.8000000000000005E-13, -2.1000000000000001E-13, 7.45
DataValue, 7.5, -50, 0, 2.6E-13, 3.42E-13, 7.5
DataValue, 7.55, -50, 0, 4E-13, 1.6E-14, 7.55
DataValue, 7.6000000000000005, -50, 0, 9.2000000000000012E-13, -1.1400000000000002E-13, 7.6000000000000005
DataValue, 7.65, -50, 0, 3.6000000000000003E-13, 1.5000000000000002E-13, 7.65
DataValue, 7.7, -50, 0, 7.3E-13, 5.1E-13, 7.7
DataValue, 7.75, -50, 0, 1.27E-12, -1.21E-12, 7.75
DataValue, 7.8, -50, 0, 1.9000000000000002E-13, -5.4E-13, 7.8
DataValue, 7.8500000000000005, -50, 0, 5.5000000000000008E-13, 8.02E-13, 7.8500000000000005
DataValue, 7.9, -50, 0, 1.2000000000000002E-13, -1.18E-13, 7.9
DataValue, 7.95, -50, 0, 4.1E-13, 1.6E-14, 7.95
DataValue, 8, -50, 0, -9.2000000000000012E-13, 3.64E-13, 8
DataValue, 8.05, -50, 0, 9.3E-13, 4.2000000000000004E-14, 8.05
DataValue, 8.1, -50, 0, -3.4E-13, 5.2E-13, 8.1
DataValue, 8.15, -50, 0, 9.4E-13, 4.6200000000000005E-13, 8.15
DataValue, 8.2, -50, 0, 8.0000000000000013E-14, -2.32E-13, 8.2
DataValue, 8.25, -50, 0, 6.400000000000001E-13, -2.3000000000000003E-13, 8.25
DataValue, 8.3, -50, 0, -1.6000000000000003E-13, -9.5800000000000016E-13, 8.3
DataValue, 8.35, -50, 0, -8.1000000000000008E-13, -3.52E-13, 8.35
DataValue, 8.4, -50, 0, -4.2000000000000003E-13, -6.6E-13, 8.4
DataValue, 8.45, -50, 0, -9.0000000000000008E-14, -6.880000000000001E-13, 8.45
DataValue, 8.5, -50, 0, -3.5E-13, -2.1600000000000001E-13, 8.5
DataValue, 8.55, -50, 0, -5E-14, -9.54E-13, 8.55
DataValue, 8.6, -50, 0, 7E-14, -7E-14, 8.6
DataValue, 8.65, -50, 0, 2.5E-13, 8.0000000000000013E-14, 8.65
DataValue, 8.7000000000000011, -50, 0, 3.4E-13, 1.6E-14, 8.7000000000000011
DataValue, 8.75, -50, 0, -9.8E-13, -9.82E-13, 8.75
DataValue, 8.8, -50, 0, -5.8000000000000005E-13, -5.22E-13, 8.8
DataValue, 8.85, -50, 0, -6.0000000000000007E-13, -4.2800000000000004E-13, 8.85
DataValue, 8.9, -50, 0, -5.5000000000000008E-13, -3.2200000000000004E-13, 8.9
DataValue, 8.9500000000000011, -50, 0, -8.300000000000001E-13, 8.2E-14, 8.9500000000000011
DataValue, 9, -50, 0, -9.0000000000000008E-14, -1.9200000000000002E-13, 9
DataValue, 9.05, -50, 0, -2.9000000000000003E-13, -4.6000000000000006E-13, 9.05
DataValue, 9.1, -50, 0, -2.9000000000000003E-13, -7.100000000000001E-13, 9.1
DataValue, 9.15, -50, 0, 1.6000000000000003E-13, 1.7E-13, 9.15
DataValue, 9.2000000000000011, -50, 0, -9.000000000000001E-13, -9.44E-13, 9.2000000000000011
