
SetupTitle, Transfer Curve
PrimitiveTest, I/V Sweep
TestParameter, Context.MainFrame, B1500A
TestParameter, Channel.UnitType, SMU, SMU, SMU
TestParameter, Channel.Unit, GNDU:GND, SMU3:MP, SMU4:MP
TestParameter, Channel.IName, Is, Id, Ig
TestParameter, Channel.VName, Vs, Vd, Vg
TestParameter, Channel.Mode, COMMON, V, V
TestParameter, Channel.Func, CONST, VAR2, VAR1
TestParameter, Channel.Index, 
TestParameter, Channel.Time, 
TestParameter, Measurement.Port.Unit, GNDU:GND, SMU3:MP, SMU4:MP
TestParameter, Measurement.Port.SeriesResistor, NONE, NONE, NONE
TestParameter, Measurement.Port.Filter, ON, ON, ON
TestParameter, Measurement.Port.OutputVoltageComparison, 0, 0, 0
TestParameter, Measurement.Primary.Locus, Single
TestParameter, Measurement.Primary.Scale, LINEAR
TestParameter, Measurement.Primary.Start, -50
TestParameter, Measurement.Primary.Stop, 50
TestParameter, Measurement.Primary.Step, 0.5
TestParameter, Measurement.Primary.Compliance, 1E-09
TestParameter, Measurement.Primary.PowerCompliance, 0
TestParameter, Measurement.Aborting.Condition, CONTINUE AT ANY
TestParameter, Measurement.PostOutput.Value, START
TestParameter, Measurement.PostOutput.Retention, OFF
TestParameter, Measurement.Secondary.Start, 0
TestParameter, Measurement.Secondary.Count, 11
TestParameter, Measurement.Secondary.Step, 1
TestParameter, Measurement.Secondary.Compliance, 1E-05
TestParameter, Measurement.Secondary.PowerCompliance, 0
TestParameter, Measurement.Bias.Source, 0, 0, -50
TestParameter, Measurement.Bias.Compliance, 2, 1E-05, 1E-09
TestParameter, Measurement.Monitor.Unit, GNDU:GND, SMU3:MP, SMU4:MP
TestParameter, Measurement.Monitor.Adc, HR ADC, HR ADC, HR ADC
TestParameter, Measurement.Monitor.Measurement, Compliance Side, Compliance Side, Compliance Side
TestParameter, Measurement.Monitor.RangingMode, LIMITED, LIMITED, LIMITED
TestParameter, Measurement.Monitor.RangeBoundary, 1nA, 1nA, 1nA
TestParameter, Measurement.Monitor.RangeRating, BY FULL RANGE, BY FULL RANGE, BY FULL RANGE
TestParameter, Measurement.Monitor.RangeRatingCoeff, 50, 50, 50
TestParameter, Measurement.Timing.Hold, 2
TestParameter, Measurement.Timing.Delay, 0
TestParameter, Measurement.Adc.HighSpeed.Mode, AUTO
TestParameter, Measurement.Adc.HighSpeed.Coeff, 1
TestParameter, Measurement.Adc.HighResolution.AutoZero, OFF
TestParameter, Measurement.Adc.HighResolution.Mode, AUTO
TestParameter, Measurement.Adc.HighResolution.Coeff, 6
TestParameter, Measurement.WaitTime.Source.Coeff, 1
TestParameter, Measurement.WaitTime.Source.Offset, 0
TestParameter, Measurement.WaitTime.Monitor.Coeff, 1
TestParameter, Measurement.WaitTime.Monitor.Offset, 0
TestParameter, Function.User.Name, absId, absIg
TestParameter, Function.User.Unit, , 
TestParameter, Function.User.Definition, abs(Id), abs(Ig)
TestParameter, Output.Graph.Enabled, true
TestParameter, Output.Graph.AutoScaling, false
TestParameter, Output.Graph.XAxis.Data, Vg
TestParameter, Output.Graph.XAxis.Scale, Linear
TestParameter, Output.Graph.XAxis.Left, -50
TestParameter, Output.Graph.XAxis.Right, 50
TestParameter, Output.Graph.XAxis.RunTimeAutoScale, false
TestParameter, Output.Graph.YAxis.Data, absIg, absId
TestParameter, Output.Graph.YAxis.Scale, Log, Log
TestParameter, Output.Graph.YAxis.Bottom, 0, 0
TestParameter, Output.Graph.YAxis.Top, 1, 1
TestParameter, Output.Graph.YAxis.Group, , 
TestParameter, Output.Graph.YAxis.RunTimeAutoScale, true, true
TestParameter, Output.List.Data, Vd, Id, Vg, Ig
TestParameter, AutoAnalysis.Interpolation, false
TestParameter, AutoAnalysis.Var2StepCount, 1
TestParameter, AutoAnalysis.Var2StepScript, 
TestParameter, AutoAnalysis.Line1.Enabled, false
TestParameter, AutoAnalysis.Line1.Type, 1
TestParameter, AutoAnalysis.Line1.Fix, True
TestParameter, AutoAnalysis.Line1.YAxis, 0
TestParameter, AutoAnalysis.Line1.Point1.Type, 0
TestParameter, AutoAnalysis.Line1.Point1.XY.X, 
TestParameter, AutoAnalysis.Line1.Point1.XY.Y, 
TestParameter, AutoAnalysis.Line1.Point1.Data.Var, 
TestParameter, AutoAnalysis.Line1.Point1.Data.Condition, 
TestParameter, AutoAnalysis.Line1.Point1.Data.Start, false
TestParameter, AutoAnalysis.Line1.Point1.Data.StartVar, 
TestParameter, AutoAnalysis.Line1.Point1.Data.StartCondition, 
TestParameter, AutoAnalysis.Line1.Point2.Type, 0
TestParameter, AutoAnalysis.Line1.Point2.XY.X, 
TestParameter, AutoAnalysis.Line1.Point2.XY.Y, 
TestParameter, AutoAnalysis.Line1.Point2.Data.Var, 
TestParameter, AutoAnalysis.Line1.Point2.Data.Condition, 
TestParameter, AutoAnalysis.Line1.Point2.Data.Start, false
TestParameter, AutoAnalysis.Line1.Point2.Data.StartVar, 
TestParameter, AutoAnalysis.Line1.Point2.Data.StartCondition, 
TestParameter, AutoAnalysis.Line1.GradientExpr, 0
TestParameter, AutoAnalysis.Line2.Enabled, false
TestParameter, AutoAnalysis.Line2.Type, 1
TestParameter, AutoAnalysis.Line2.Fix, True
TestParameter, AutoAnalysis.Line2.YAxis, 0
TestParameter, AutoAnalysis.Line2.Point1.Type, 0
TestParameter, AutoAnalysis.Line2.Point1.XY.X, 
TestParameter, AutoAnalysis.Line2.Point1.XY.Y, 
TestParameter, AutoAnalysis.Line2.Point1.Data.Var, 
TestParameter, AutoAnalysis.Line2.Point1.Data.Condition, 
TestParameter, AutoAnalysis.Line2.Point1.Data.Start, false
TestParameter, AutoAnalysis.Line2.Point1.Data.StartVar, 
TestParameter, AutoAnalysis.Line2.Point1.Data.StartCondition, 
TestParameter, AutoAnalysis.Line2.Point2.Type, 0
TestParameter, AutoAnalysis.Line2.Point2.XY.X, 
TestParameter, AutoAnalysis.Line2.Point2.XY.Y, 
TestParameter, AutoAnalysis.Line2.Point2.Data.Var, 
TestParameter, AutoAnalysis.Line2.Point2.Data.Condition, 
TestParameter, AutoAnalysis.Line2.Point2.Data.Start, false
TestParameter, AutoAnalysis.Line2.Point2.Data.StartVar, 
TestParameter, AutoAnalysis.Line2.Point2.Data.StartCondition, 
TestParameter, AutoAnalysis.Line2.GradientExpr, 0
TestParameter, AutoAnalysis.Marker.Enabled, false
TestParameter, AutoAnalysis.Marker.Data.Var, 
TestParameter, AutoAnalysis.Marker.Data.Condition, 
TestParameter, AutoAnalysis.Marker.Data.Start, false
TestParameter, AutoAnalysis.Marker.Data.StartVar, 
TestParameter, AutoAnalysis.Marker.Data.StartCondition, 
MetaData, TestRecord.EntryPoint, true
MetaData, TestRecord.RecordTime, 10/07/2025 21:56:45
MetaData, TestRecord.TestTarget, CHIP012_O7
MetaData, TestRecord.IterationIndex, 3
MetaData, TestRecord.Preservation, true
MetaData, TestRecord.Flag, #
MetaData, TestRecord.Remarks, 
MetaData, TestRecord.LinkKey, 9c0b1336-a5fc-45bf-a36b-dcd961b790e3
MetaData, TestRecord.Parameters, 
Dimension1, 201, 201, 201, 201, 201, 201
Dimension2, 11, 11, 11, 11, 11, 11
DataName, Vg, Vd, Id, Ig, absId, absIg
DataValue, -50, 0, 2.6E-13, -5.4000000000000003E-14, 2.6E-13, 5.4000000000000003E-14
DataValue, -49.5, 0, -4E-13, 1.36E-13, 4E-13, 1.36E-13
DataValue, -49, 0, 4.1E-13, 1.54E-13, 4.1E-13, 1.54E-13
DataValue, -48.5, 0, -2.4000000000000004E-13, -7.32E-13, 2.4000000000000004E-13, 7.32E-13
DataValue, -48, 0, 8.0000000000000013E-14, -3.5800000000000004E-13, 8.0000000000000013E-14, 3.5800000000000004E-13
DataValue, -47.5, 0, -2.0000000000000003E-14, -8E-15, 2.0000000000000003E-14, 8E-15
DataValue, -47, 0, -2.8E-13, -4.1E-13, 2.8E-13, 4.1E-13
DataValue, -46.5, 0, 4.9E-13, -6.12E-13, 4.9E-13, 6.12E-13
DataValue, -46, 0, -4.0000000000000006E-14, 3.2200000000000004E-13, 4.0000000000000006E-14, 3.2200000000000004E-13
DataValue, -45.5, 0, -7.5E-13, -4.2000000000000003E-13, 7.5E-13, 4.2000000000000003E-13
DataValue, -45, 0, -7.100000000000001E-13, -2E-13, 7.100000000000001E-13, 2E-13
DataValue, -44.5, 0, 7.9000000000000007E-13, 5.7200000000000009E-13, 7.9000000000000007E-13, 5.7200000000000009E-13
DataValue, -44, 0, -2.4000000000000004E-13, -1.94E-13, 2.4000000000000004E-13, 1.94E-13
DataValue, -43.5, 0, -2.0000000000000003E-14, 5E-14, 2.0000000000000003E-14, 5E-14
DataValue, -43, 0, -5.6E-13, 1.24E-13, 5.6E-13, 1.24E-13
DataValue, -42.5, 0, -7.3E-13, 1.22E-13, 7.3E-13, 1.22E-13
DataValue, -42, 0, 1.0100000000000001E-12, 4.64E-13, 1.0100000000000001E-12, 4.64E-13
DataValue, -41.5, 0, -1.3E-13, -4.48E-13, 1.3E-13, 4.48E-13
DataValue, -41, 0, 2.8E-13, -1.7800000000000002E-13, 2.8E-13, 1.7800000000000002E-13
DataValue, -40.5, 0, 2.6E-13, 4.64E-13, 2.6E-13, 4.64E-13
DataValue, -40, 0, -8.1000000000000008E-13, -4.7800000000000008E-13, 8.1000000000000008E-13, 4.7800000000000008E-13
DataValue, -39.5, 0, 3.4E-13, -3.6000000000000004E-14, 3.4E-13, 3.6000000000000004E-14
DataValue, -39, 0, -1.6000000000000003E-13, -2.0800000000000002E-13, 1.6000000000000003E-13, 2.0800000000000002E-13
DataValue, -38.5, 0, -1.0600000000000001E-12, -1.6600000000000003E-13, 1.0600000000000001E-12, 1.6600000000000003E-13
DataValue, -38, 0, -5.9E-13, 2.6600000000000003E-13, 5.9E-13, 2.6600000000000003E-13
DataValue, -37.5, 0, -3.2000000000000005E-13, -1.23E-12, 3.2000000000000005E-13, 1.23E-12
DataValue, -37, 0, -4.1E-13, 3.3E-13, 4.1E-13, 3.3E-13
DataValue, -36.5, 0, 2.4000000000000004E-13, 2.1400000000000002E-13, 2.4000000000000004E-13, 2.1400000000000002E-13
DataValue, -36, 0, -4.6000000000000006E-13, -5.6E-14, 4.6000000000000006E-13, 5.6E-14
DataValue, -35.5, 0, -1.6000000000000003E-13, 1.48E-13, 1.6000000000000003E-13, 1.48E-13
DataValue, -35, 0, -3.7000000000000004E-13, -4.8000000000000004E-14, 3.7000000000000004E-13, 4.8000000000000004E-14
DataValue, -34.5, 0, 4.0000000000000006E-14, -2.9000000000000003E-13, 4.0000000000000006E-14, 2.9000000000000003E-13
DataValue, -34, 0, -1.1600000000000001E-12, -1.4E-13, 1.1600000000000001E-12, 1.4E-13
DataValue, -33.5, 0, -9.0000000000000008E-14, 9.6000000000000007E-14, 9.0000000000000008E-14, 9.6000000000000007E-14
DataValue, -33, 0, 4.3000000000000004E-13, -5.68E-13, 4.3000000000000004E-13, 5.68E-13
DataValue, -32.5, 0, -5.7E-13, -5.14E-13, 5.7E-13, 5.14E-13
DataValue, -32, 0, -8.0000000000000013E-14, -1.2000000000000002E-13, 8.0000000000000013E-14, 1.2000000000000002E-13
DataValue, -31.5, 0, -3.5E-13, -7.8400000000000009E-13, 3.5E-13, 7.8400000000000009E-13
DataValue, -31, 0, -9.0000000000000008E-14, -8E-13, 9.0000000000000008E-14, 8E-13
DataValue, -30.5, 0, -1.1000000000000001E-13, 7.5E-13, 1.1000000000000001E-13, 7.5E-13
DataValue, -30, 0, -2.3000000000000003E-13, 4.72E-13, 2.3000000000000003E-13, 4.72E-13
DataValue, -29.5, 0, -1.09E-12, 3.76E-13, 1.09E-12, 3.76E-13
DataValue, -29, 0, -5.8000000000000005E-13, -2.6E-13, 5.8000000000000005E-13, 2.6E-13
DataValue, -28.5, 0, -6.400000000000001E-13, 6.86E-13, 6.400000000000001E-13, 6.86E-13
DataValue, -28, 0, 2.2000000000000002E-13, -2.5400000000000003E-13, 2.2000000000000002E-13, 2.5400000000000003E-13
DataValue, -27.5, 0, -3.6000000000000003E-13, 8.6000000000000012E-14, 3.6000000000000003E-13, 8.6000000000000012E-14
DataValue, -27, 0, -7.8000000000000011E-13, 1.092E-12, 7.8000000000000011E-13, 1.092E-12
DataValue, -26.5, 0, 1.1600000000000001E-12, -4.66E-13, 1.1600000000000001E-12, 4.66E-13
DataValue, -26, 0, -1.07E-12, 2.12E-13, 1.07E-12, 2.12E-13
DataValue, -25.5, 0, 1.09E-12, 1.8000000000000002E-13, 1.09E-12, 1.8000000000000002E-13
DataValue, -25, 0, -1.14E-12, 1.9200000000000002E-13, 1.14E-12, 1.9200000000000002E-13
DataValue, -24.5, 0, -6.1E-13, -6.36E-13, 6.1E-13, 6.36E-13
DataValue, -24, 0, 9.3E-13, -5.7400000000000008E-13, 9.3E-13, 5.7400000000000008E-13
DataValue, -23.5, 0, -1.0000000000000002E-14, 7.6E-14, 1.0000000000000002E-14, 7.6E-14
DataValue, -23, 0, 3.4E-13, -4.5400000000000003E-13, 3.4E-13, 4.5400000000000003E-13
DataValue, -22.5, 0, -7.4000000000000008E-13, -2.9800000000000004E-13, 7.4000000000000008E-13, 2.9800000000000004E-13
DataValue, -22, 0, 1.31E-12, 2.2E-14, 1.31E-12, 2.2E-14
DataValue, -21.5, 0, -3.1100000000000003E-12, 3.1000000000000004E-13, 3.1100000000000003E-12, 3.1000000000000004E-13
DataValue, -21, 0, 1.46E-12, 2.1600000000000001E-13, 1.46E-12, 2.1600000000000001E-13
DataValue, -20.5, 0, 8.9E-13, -1.0200000000000001E-13, 8.9E-13, 1.0200000000000001E-13
DataValue, -20, 0, -2.03E-12, -5E-14, 2.03E-12, 5E-14
DataValue, -19.5, 0, 1.8000000000000002E-12, -3.18E-13, 1.8000000000000002E-12, 3.18E-13
DataValue, -19, 0, -1.9E-12, 1.12E-13, 1.9E-12, 1.12E-13
DataValue, -18.5, 0, 2.64E-12, -5.5000000000000008E-13, 2.64E-12, 5.5000000000000008E-13
DataValue, -18, 0, -4.41E-12, 4.5600000000000008E-13, 4.41E-12, 4.5600000000000008E-13
DataValue, -17.5, 0, 4.0500000000000007E-12, 4.24E-13, 4.0500000000000007E-12, 4.24E-13
DataValue, -17, 0, -3.18E-12, 1.6000000000000003E-13, 3.18E-12, 1.6000000000000003E-13
DataValue, -16.5, 0, -1.1000000000000001E-13, 1.34E-13, 1.1000000000000001E-13, 1.34E-13
DataValue, -16, 0, 3.7900000000000006E-12, 3.6000000000000004E-14, 3.7900000000000006E-12, 3.6000000000000004E-14
DataValue, -15.5, 0, -3.85E-12, 1.82E-13, 3.85E-12, 1.82E-13
DataValue, -15, 0, 2.3300000000000004E-12, 2.2600000000000002E-13, 2.3300000000000004E-12, 2.2600000000000002E-13
DataValue, -14.5, 0, -4.1900000000000005E-12, 5.62E-13, 4.1900000000000005E-12, 5.62E-13
DataValue, -14, 0, 6.7300000000000006E-12, -5E-13, 6.7300000000000006E-12, 5E-13
DataValue, -13.5, 0, -9.54E-12, 8.4000000000000008E-14, 9.54E-12, 8.4000000000000008E-14
DataValue, -13, 0, 6.8500000000000009E-12, 3.9400000000000004E-13, 6.8500000000000009E-12, 3.9400000000000004E-13
DataValue, -12.5, 0, -2.59E-12, -1.8000000000000002E-13, 2.59E-12, 1.8000000000000002E-13
DataValue, -12, 0, -4.26E-12, -5.0200000000000008E-13, 4.26E-12, 5.0200000000000008E-13
DataValue, -11.5, 0, 6.0300000000000008E-12, 4.8000000000000004E-14, 6.0300000000000008E-12, 4.8000000000000004E-14
DataValue, -11, 0, -4.2500000000000007E-12, -2.94E-13, 4.2500000000000007E-12, 2.94E-13
DataValue, -10.5, 0, 4.62E-12, -3.9400000000000004E-13, 4.62E-12, 3.9400000000000004E-13
DataValue, -10, 0, -9.6100000000000013E-12, 5.64E-13, 9.6100000000000013E-12, 5.64E-13
DataValue, -9.5, 0, 1.2480000000000002E-11, 4.98E-13, 1.2480000000000002E-11, 4.98E-13
DataValue, -9, 0, -1.361E-11, 2.8E-14, 1.361E-11, 2.8E-14
DataValue, -8.5, 0, 7.1500000000000008E-12, 3.9000000000000005E-13, 7.1500000000000008E-12, 3.9000000000000005E-13
DataValue, -8, 0, 4.42E-12, 4.88E-13, 4.42E-12, 4.88E-13
DataValue, -7.5, 0, -1.1150000000000002E-11, 1.12E-13, 1.1150000000000002E-11, 1.12E-13
DataValue, -7, 0, 7.02E-12, 2.0400000000000001E-13, 7.02E-12, 2.0400000000000001E-13
DataValue, -6.5, 0, -6.7500000000000009E-12, 1.48E-13, 6.7500000000000009E-12, 1.48E-13
DataValue, -6, 0, 1.3140000000000001E-11, -4.24E-13, 1.3140000000000001E-11, 4.24E-13
DataValue, -5.5, 0, -1.8710000000000002E-11, 2.5200000000000004E-13, 1.8710000000000002E-11, 2.5200000000000004E-13
DataValue, -5, 0, 2.247E-11, 1.0000000000000002E-14, 2.247E-11, 1.0000000000000002E-14
DataValue, -4.5, 0, -1.272E-11, 4.1E-13, 1.272E-11, 4.1E-13
DataValue, -4, 0, -4.83E-12, 8.0000000000000013E-14, 4.83E-12, 8.0000000000000013E-14
DataValue, -3.5, 0, 1.4400000000000002E-11, 5.5000000000000008E-13, 1.4400000000000002E-11, 5.5000000000000008E-13
DataValue, -3, 0, -1.097E-11, 2.1000000000000001E-13, 1.097E-11, 2.1000000000000001E-13
DataValue, -2.5, 0, 1.0410000000000001E-11, -5.1E-13, 1.0410000000000001E-11, 5.1E-13
DataValue, -2, 0, -1.91E-11, 4.8400000000000006E-13, 1.91E-11, 4.8400000000000006E-13
DataValue, -1.5, 0, 2.938E-11, 1.22E-13, 2.938E-11, 1.22E-13
DataValue, -1, 0, -3.168E-11, 1.9200000000000002E-13, 3.168E-11, 1.9200000000000002E-13
DataValue, -0.5, 0, 1.8400000000000002E-11, 1.7E-13, 1.8400000000000002E-11, 1.7E-13
DataValue, 0, 0, -2.8100000000000003E-12, -1.36E-13, 2.8100000000000003E-12, 1.36E-13
DataValue, 0.5, 0, -2.1020000000000002E-11, -1E-13, 2.1020000000000002E-11, 1E-13
DataValue, 1, 0, 2.121E-11, 4.68E-13, 2.121E-11, 4.68E-13
DataValue, 1.5, 0, -1.242E-11, -2.8E-14, 1.242E-11, 2.8E-14
DataValue, 2, 0, 2.152E-11, -2.6E-13, 2.152E-11, 2.6E-13
DataValue, 2.5, 0, -3.71E-11, 1.2600000000000002E-13, 3.71E-11, 1.2600000000000002E-13
DataValue, 3, 0, 4.2730000000000004E-11, -3.38E-13, 4.2730000000000004E-11, 3.38E-13
DataValue, 3.5, 0, -3.6000000000000005E-11, 4.7E-13, 3.6000000000000005E-11, 4.7E-13
DataValue, 4, 0, 1.2450000000000001E-11, 8.9E-13, 1.2450000000000001E-11, 8.9E-13
DataValue, 4.5, 0, 2.311E-11, 1.34E-13, 2.311E-11, 1.34E-13
DataValue, 5, 0, -3.037E-11, 9.6000000000000007E-14, 3.037E-11, 9.6000000000000007E-14
DataValue, 5.5, 0, 2.003E-11, 4.8000000000000004E-14, 2.003E-11, 4.8000000000000004E-14
DataValue, 6, 0, -2.8560000000000003E-11, 3.64E-13, 2.8560000000000003E-11, 3.64E-13
DataValue, 6.5, 0, 4.931E-11, 1.9600000000000002E-13, 4.931E-11, 1.9600000000000002E-13
DataValue, 7, 0, -5.860000000000001E-11, 2.7E-13, 5.860000000000001E-11, 2.7E-13
DataValue, 7.5, 0, 5.7890000000000006E-11, 9.0000000000000008E-14, 5.7890000000000006E-11, 9.0000000000000008E-14
DataValue, 8, 0, -2.236E-11, 4.3000000000000004E-13, 2.236E-11, 4.3000000000000004E-13
DataValue, 8.5, 0, -2.0000000000000002E-11, -6.6600000000000009E-13, 2.0000000000000002E-11, 6.6600000000000009E-13
DataValue, 9, 0, 4.3690000000000006E-11, 6.9400000000000007E-13, 4.3690000000000006E-11, 6.9400000000000007E-13
DataValue, 9.5, 0, -3.0860000000000004E-11, -1.48E-13, 3.0860000000000004E-11, 1.48E-13
DataValue, 10, 0, 2.839E-11, -1.06E-13, 2.839E-11, 1.06E-13
DataValue, 10.5, 0, -5.353E-11, 8.5800000000000008E-13, 5.353E-11, 8.5800000000000008E-13
DataValue, 11, 0, 7.553000000000001E-11, 1.9800000000000002E-13, 7.553000000000001E-11, 1.9800000000000002E-13
DataValue, 11.5, 0, -7.9200000000000008E-11, 4.3800000000000005E-13, 7.9200000000000008E-11, 4.3800000000000005E-13
DataValue, 12, 0, 4.654E-11, 3.86E-13, 4.654E-11, 3.86E-13
DataValue, 12.5, 0, 1.3770000000000001E-11, 4.2600000000000005E-13, 1.3770000000000001E-11, 4.2600000000000005E-13
DataValue, 13, 0, -5.0700000000000003E-11, -1.5600000000000002E-13, 5.0700000000000003E-11, 1.5600000000000002E-13
DataValue, 13.5, 0, 4.8710000000000006E-11, 1.42E-13, 4.8710000000000006E-11, 1.42E-13
DataValue, 14, 0, -3.306E-11, -9.4E-14, 3.306E-11, 9.4E-14
DataValue, 14.5, 0, 5.5690000000000004E-11, 2.0400000000000001E-13, 5.5690000000000004E-11, 2.0400000000000001E-13
DataValue, 15, 0, -9.6680000000000009E-11, 9.42E-13, 9.6680000000000009E-11, 9.42E-13
DataValue, 15.5, 0, 1.0554E-10, 3.2E-14, 1.0554E-10, 3.2E-14
DataValue, 16, 0, -7.3220000000000007E-11, -8.0000000000000013E-14, 7.3220000000000007E-11, 8.0000000000000013E-14
DataValue, 16.5, 0, 9.48E-12, 5.62E-13, 9.48E-12, 5.62E-13
DataValue, 17, 0, 5.3410000000000006E-11, 6.3E-13, 5.3410000000000006E-11, 6.3E-13
DataValue, 17.5, 0, -6.7810000000000009E-11, 9.38E-13, 6.7810000000000009E-11, 9.38E-13
DataValue, 18, 0, 4.6670000000000005E-11, -1.3E-13, 4.6670000000000005E-11, 1.3E-13
DataValue, 18.5, 0, -7.866E-11, 1.2080000000000001E-12, 7.866E-11, 1.2080000000000001E-12
DataValue, 19, 0, 1.1467E-10, 2.96E-13, 1.1467E-10, 2.96E-13
DataValue, 19.5, 0, -1.3429E-10, 2E-13, 1.3429E-10, 2E-13
DataValue, 20, 0, 9.732E-11, 5E-14, 9.732E-11, 5E-14
DataValue, 20.5, 0, -6.5400000000000008E-12, -5.86E-13, 6.5400000000000008E-12, 5.86E-13
DataValue, 21, 0, -7.166E-11, -8.48E-13, 7.166E-11, 8.48E-13
DataValue, 21.5, 0, 8.495E-11, 1.6200000000000002E-13, 8.495E-11, 1.6200000000000002E-13
DataValue, 22, 0, -6.0560000000000009E-11, -3.9200000000000005E-13, 6.0560000000000009E-11, 3.9200000000000005E-13
DataValue, 22.5, 0, 9.0470000000000012E-11, -4.72E-13, 9.0470000000000012E-11, 4.72E-13
DataValue, 23, 0, -1.4504000000000002E-10, 1.94E-13, 1.4504000000000002E-10, 1.94E-13
DataValue, 23.5, 0, 1.4771E-10, 8.1000000000000008E-13, 1.4771E-10, 8.1000000000000008E-13
DataValue, 24, 0, -1.3024E-10, -1.8000000000000002E-14, 1.3024E-10, 1.8000000000000002E-14
DataValue, 24.5, 0, 2.4610000000000003E-11, 9.6600000000000012E-13, 2.4610000000000003E-11, 9.6600000000000012E-13
DataValue, 25, 0, 7.982E-11, 9.48E-13, 7.982E-11, 9.48E-13
