
SetupTitle, Quick Check
PrimitiveTest, I/V Sweep
TestParameter, Context.MainFrame, B1500A
TestParameter, Channel.UnitType, SMU, SMU
TestParameter, Channel.Unit, GNDU:GND, SMU3:MP
TestParameter, Channel.IName, Is, Id
TestParameter, Channel.VName, Vs, Vd
TestParameter, Channel.Mode, COMMON, V
TestParameter, Channel.Func, CONST, VAR1
TestParameter, Channel.Index, 
TestParameter, Channel.Time, 
TestParameter, Measurement.Port.Unit, GNDU:GND, SMU3:MP
TestParameter, Measurement.Port.SeriesResistor, NONE, NONE
TestParameter, Measurement.Port.Filter, ON, ON
TestParameter, Measurement.Port.OutputVoltageComparison, 0, 0
TestParameter, Measurement.Primary.Locus, Single
TestParameter, Measurement.Primary.Scale, LINEAR
TestParameter, Measurement.Primary.Start, 0
TestParameter, Measurement.Primary.Stop, 5
TestParameter, Measurement.Primary.Step, 0.1
TestParameter, Measurement.Primary.Compliance, 1E-05
TestParameter, Measurement.Primary.PowerCompliance, 0
TestParameter, Measurement.Aborting.Condition, CONTINUE AT ANY
TestParameter, Measurement.PostOutput.Value, START
TestParameter, Measurement.PostOutput.Retention, OFF
TestParameter, Measurement.Bias.Source, 0, 0
TestParameter, Measurement.Bias.Compliance, 2, 1E-05
TestParameter, Measurement.Monitor.Unit, GNDU:GND, SMU3:MP
TestParameter, Measurement.Monitor.Adc, HR ADC, HR ADC
TestParameter, Measurement.Monitor.Measurement, Compliance Side, Compliance Side
TestParameter, Measurement.Monitor.RangingMode, LIMITED, LIMITED
TestParameter, Measurement.Monitor.RangeBoundary, 1nA, 1nA
TestParameter, Measurement.Monitor.RangeRating, BY FULL RANGE, BY FULL RANGE
TestParameter, Measurement.Monitor.RangeRatingCoeff, 50, 50
TestParameter, Measurement.Timing.Hold, 2
TestParameter, Measurement.Timing.Delay, 0
TestParameter, Measurement.Adc.HighSpeed.Mode, AUTO
TestParameter, Measurement.Adc.HighSpeed.Coeff, 1
TestParameter, Measurement.Adc.HighResolution.AutoZero, OFF
TestParameter, Measurement.Adc.HighResolution.Mode, AUTO
TestParameter, Measurement.Adc.HighResolution.Coeff, 6
TestParameter, Measurement.WaitTime.Source.Coeff, 1
TestParameter, Measurement.WaitTime.Source.Offset, 0
TestParameter, Measurement.WaitTime.Monitor.Coeff, 1
TestParameter, Measurement.WaitTime.Monitor.Offset, 0
TestParameter, Output.Graph.Enabled, true
TestParameter, Output.Graph.AutoScaling, false
TestParameter, Output.Graph.XAxis.Data, Vd
TestParameter, Output.Graph.XAxis.Scale, Linear
TestParameter, Output.Graph.XAxis.Left, 0
TestParameter, Output.Graph.XAxis.Right, 5
TestParameter, Output.Graph.XAxis.RunTimeAutoScale, false
TestParameter, Output.Graph.YAxis.Data, Id
TestParameter, Output.Graph.YAxis.Scale, Linear
TestParameter, Output.Graph.YAxis.Bottom, -1E-05
TestParameter, Output.Graph.YAxis.Top, 1E-05
TestParameter, Output.Graph.YAxis.Group, 
TestParameter, Output.Graph.YAxis.RunTimeAutoScale, true
TestParameter, Output.List.Data, Vd, Id, Vg, Ig
TestParameter, AutoAnalysis.Interpolation, false
TestParameter, AutoAnalysis.Var2StepCount, 1
TestParameter, AutoAnalysis.Var2StepScript, 
TestParameter, AutoAnalysis.Line1.Enabled, false
TestParameter, AutoAnalysis.Line1.Type, 1
TestParameter, AutoAnalysis.Line1.Fix, True
TestParameter, AutoAnalysis.Line1.YAxis, 0
TestParameter, AutoAnalysis.Line1.Point1.Type, 0
TestParameter, AutoAnalysis.Line1.Point1.XY.X, 
TestParameter, AutoAnalysis.Line1.Point1.XY.Y, 
TestParameter, AutoAnalysis.Line1.Point1.Data.Var, 
TestParameter, AutoAnalysis.Line1.Point1.Data.Condition, 
TestParameter, AutoAnalysis.Line1.Point1.Data.Start, false
TestParameter, AutoAnalysis.Line1.Point1.Data.StartVar, 
TestParameter, AutoAnalysis.Line1.Point1.Data.StartCondition, 
TestParameter, AutoAnalysis.Line1.Point2.Type, 0
TestParameter, AutoAnalysis.Line1.Point2.XY.X, 
TestParameter, AutoAnalysis.Line1.Point2.XY.Y, 
TestParameter, AutoAnalysis.Line1.Point2.Data.Var, 
TestParameter, AutoAnalysis.Line1.Point2.Data.Condition, 
TestParameter, AutoAnalysis.Line1.Point2.Data.Start, false
TestParameter, AutoAnalysis.Line1.Point2.Data.StartVar, 
TestParameter, AutoAnalysis.Line1.Point2.Data.StartCondition, 
TestParameter, AutoAnalysis.Line1.GradientExpr, 0
TestParameter, AutoAnalysis.Line2.Enabled, false
TestParameter, AutoAnalysis.Line2.Type, 1
TestParameter, AutoAnalysis.Line2.Fix, True
TestParameter, AutoAnalysis.Line2.YAxis, 0
TestParameter, AutoAnalysis.Line2.Point1.Type, 0
TestParameter, AutoAnalysis.Line2.Point1.XY.X, 
TestParameter, AutoAnalysis.Line2.Point1.XY.Y, 
TestParameter, AutoAnalysis.Line2.Point1.Data.Var, 
TestParameter, AutoAnalysis.Line2.Point1.Data.Condition, 
TestParameter, AutoAnalysis.Line2.Point1.Data.Start, false
TestParameter, AutoAnalysis.Line2.Point1.Data.StartVar, 
TestParameter, AutoAnalysis.Line2.Point1.Data.StartCondition, 
TestParameter, AutoAnalysis.Line2.Point2.Type, 0
TestParameter, AutoAnalysis.Line2.Point2.XY.X, 
TestParameter, AutoAnalysis.Line2.Point2.XY.Y, 
TestParameter, AutoAnalysis.Line2.Point2.Data.Var, 
TestParameter, AutoAnalysis.Line2.Point2.Data.Condition, 
TestParameter, AutoAnalysis.Line2.Point2.Data.Start, false
TestParameter, AutoAnalysis.Line2.Point2.Data.StartVar, 
TestParameter, AutoAnalysis.Line2.Point2.Data.StartCondition, 
TestParameter, AutoAnalysis.Line2.GradientExpr, 0
TestParameter, AutoAnalysis.Marker.Enabled, false
TestParameter, AutoAnalysis.Marker.Data.Var, 
TestParameter, AutoAnalysis.Marker.Data.Condition, 
TestParameter, AutoAnalysis.Marker.Data.Start, false
TestParameter, AutoAnalysis.Marker.Data.StartVar, 
TestParameter, AutoAnalysis.Marker.Data.StartCondition, 
MetaData, TestRecord.EntryPoint, true
MetaData, TestRecord.RecordTime, 10/07/2025 22:53:53
MetaData, TestRecord.TestTarget, 
MetaData, TestRecord.IterationIndex, 4
MetaData, TestRecord.Preservation, true
MetaData, TestRecord.Flag, 
MetaData, TestRecord.Remarks, 
MetaData, TestRecord.LinkKey, 06613b2d-052c-4348-a7d2-1215a1524dd2
MetaData, TestRecord.Parameters, 
Dimension1, 51, 51, 51, 51
Dimension2, 1, 1, 1, 1
DataName, Vd, Id, Vg, Ig
DataValue, 0, -1.7140000000000002E-11, , 
DataValue, 0.1, 1.4453799999999999E-08, , 
DataValue, 0.2, 2.8569199999999997E-08, , 
DataValue, 0.3, 4.1810599999999995E-08, , 
DataValue, 0.4, 5.4381599999999995E-08, , 
DataValue, 0.5, 6.60406E-08, , 
DataValue, 0.6, 7.8022399999999991E-08, , 
DataValue, 0.70000000000000007, 8.9517399999999989E-08, , 
DataValue, 0.8, 1.0095879999999999E-07, , 
DataValue, 0.9, 1.1166E-07, , 
DataValue, 1, 1.2306E-07, , 
DataValue, 1.1, 1.3484E-07, , 
DataValue, 1.2, 1.4756E-07, , 
DataValue, 1.3, 1.5956E-07, , 
DataValue, 1.4000000000000001, 1.7258E-07, , 
DataValue, 1.5, 1.8298E-07, , 
DataValue, 1.6, 1.9488E-07, , 
DataValue, 1.7, 2.0824E-07, , 
DataValue, 1.8, 2.1999999999999999E-07, , 
DataValue, 1.9000000000000001, 2.3292E-07, , 
DataValue, 2, 2.4414E-07, , 
DataValue, 2.1, 2.5567999999999997E-07, , 
DataValue, 2.2, 2.687E-07, , 
DataValue, 2.3000000000000003, 2.7978E-07, , 
DataValue, 2.4, 2.9316E-07, , 
DataValue, 2.5, 3.0636E-07, , 
DataValue, 2.6, 3.1935999999999997E-07, , 
DataValue, 2.7, 3.3107999999999997E-07, , 
DataValue, 2.8000000000000003, 3.426E-07, , 
DataValue, 2.9, 3.5312E-07, , 
DataValue, 3, 3.691E-07, , 
DataValue, 3.1, 3.8222E-07, , 
DataValue, 3.2, 3.967E-07, , 
DataValue, 3.3000000000000003, 4.0646E-07, , 
DataValue, 3.4, 4.1973999999999997E-07, , 
DataValue, 3.5, 4.321E-07, , 
DataValue, 3.6, 4.4503999999999997E-07, , 
DataValue, 3.7, 4.6168E-07, , 
DataValue, 3.8000000000000003, 4.6674E-07, , 
DataValue, 3.9, 4.8402E-07, , 
DataValue, 4, 4.9886E-07, , 
DataValue, 4.1, 5.0934E-07, , 
DataValue, 4.2, 5.2264E-07, , 
DataValue, 4.3, 5.349E-07, , 
DataValue, 4.4, 5.5302E-07, , 
DataValue, 4.5, 5.667E-07, , 
DataValue, 4.6000000000000005, 5.7768E-07, , 
DataValue, 4.7, 5.844E-07, , 
DataValue, 4.8, 6.0108E-07, , 
DataValue, 4.9, 6.1352E-07, , 
DataValue, 5, 6.2712E-07, , 